! 
# GHZ S MA R 50
! Nport = 1
1.20000000000000e+000 9.79971403678130e-001 -2.52676027376821e+001
1.23000000000000e+000 9.75093644812014e-001 -3.37657199106962e+001
1.26000000000000e+000 9.66167382697448e-001 -4.32631145184463e+001
1.29000000000000e+000 9.50593996042597e-001 -5.41280024408498e+001
1.32000000000000e+000 9.23647026556248e-001 -6.68801430468436e+001
1.35000000000000e+000 8.76585541742184e-001 -8.22486575639466e+001
1.38000000000000e+000 7.93985025519208e-001 -1.01171391229436e+002
1.41000000000000e+000 6.54236692351920e-001 -1.24481766014934e+002
1.44000000000000e+000 4.47140399602788e-001 -1.51787355911488e+002
1.47000000000000e+000 2.08883917722810e-001 -1.79285043693327e+002
1.50000000000000e+000 2.24764436501075e-002 -1.35929900299674e+002
1.53000000000000e+000 1.34956066717933e-001 -7.45274267821443e+001
1.56000000000000e+000 2.15914825796958e-001 -9.91896718928654e+001
1.59000000000000e+000 2.65910661071347e-001 -1.25671303038367e+002
1.62000000000000e+000 3.04247891577076e-001 -1.51599201988769e+002
1.65000000000000e+000 3.41931435024584e-001 -1.75622240619853e+002
1.68000000000000e+000 3.82337735092445e-001 1.63144416520431e+002
1.71000000000000e+000 4.24497937387534e-001 1.44928630019282e+002
1.74000000000000e+000 4.66221032752184e-001 1.29488937809365e+002
1.77000000000000e+000 5.05699779430456e-001 1.16402765686646e+002
1.80000000000000e+000 5.41902814809129e-001 1.05241332164802e+002

! acs =  6 12 5 8 3 5 4
! insert_points = 3
! eps2d = 3e-005 3e-005 eps3d = 0.0001 0.0001
! max_factor = 2.5 extract_factor = 0.2 far_factor=0.5 eps_thin = 0.0001 eps_far = 0.01
! max_pts = 12 max_pts_inc_st = 1 max_pts_inc_nr = 1 rate_pts = 2.5 next_ratio = 1.5 max_images=500000
! auto_fixed_lambda = 0 increase_rate = 0.1 min_lambda = 100 max_lambda = 1e+006
