! 
# GHZ S MA R 50
! Nport = 1
8.00000000000000e-001 9.64981669139353e-001 5.16284885283526e+001
8.83333333330000e-001 9.75711894848507e-001 3.01750421596089e+001
9.66666666660000e-001 9.83978132454771e-001 1.21708665393707e+001
1.04999999999000e+000 9.89042294599615e-001 -4.72358717259603e+000
1.13333333332000e+000 9.87929760317854e-001 -2.25796587286557e+001
1.21666666665000e+000 9.70339512503202e-001 -4.41589829337512e+001
1.29999999998000e+000 8.97930714588512e-001 -7.48105618490211e+001
1.38333333331000e+000 6.39332609609267e-001 -1.26633673233666e+002
1.46666666664000e+000 2.01475515692424e-001 1.22757587928479e+002
1.54999999997000e+000 2.72578155068323e-001 -1.39330702076424e+001
1.63333333330000e+000 2.81257628125406e-001 -8.12481171531584e+001
1.71666666663000e+000 2.54132811576147e-001 -1.55635307918926e+002
1.79999999996000e+000 3.34056999157859e-001 1.40557181070469e+002
1.88333333329000e+000 4.50200200639347e-001 1.03068084845228e+002
1.96666666662000e+000 5.45806810257057e-001 7.95173098000417e+001
2.04999999995000e+000 6.15977554571196e-001 6.30197615211590e+001
2.13333333328000e+000 6.66768875008778e-001 5.05646543663943e+001
2.21666666661000e+000 7.03981359403385e-001 4.06341021725350e+001
2.29999999994000e+000 7.31648402060055e-001 3.23699457240572e+001
2.38333333327000e+000 7.52343567982736e-001 2.52437354231993e+001
2.46666666660000e+000 7.67605368807948e-001 1.89044758512221e+001
2.54999999993000e+000 7.78192333710164e-001 1.30988876836060e+001
2.63333333326000e+000 7.84104193172138e-001 7.62385039108055e+000
2.71666666659000e+000 7.84234080868351e-001 2.30066426093265e+000
2.79999999992000e+000 7.75581771106327e-001 -3.00642557916594e+000

! acs =  6 12 5 8 3 5 4
! insert_points = 3
! eps2d = 3e-005 3e-005 eps3d = 0.0001 0.0001
! max_factor = 2.5 extract_factor = 0.2 far_factor=0.5 eps_thin = 0.0001 eps_far = 0.01
! max_pts = 12 max_pts_inc_st = 1 max_pts_inc_nr = 1 rate_pts = 2.5 next_ratio = 1.5 max_images=500000
! auto_fixed_lambda = 0 increase_rate = 0.1 min_lambda = 100 max_lambda = 1e+006
