! 
# GHZ S MA R 50
! Nport = 1
8.00000000000000e-001 9.50343168672254e-001 1.52259954011798e+002
8.83333333330000e-001 9.42286064396117e-001 1.32523307463454e+002
9.66666666660000e-001 9.35940257868756e-001 1.14388417244113e+002
1.04999999999000e+000 9.30940225343019e-001 9.75824064062523e+001
1.13333333332000e+000 9.26427978492555e-001 8.16277959669309e+001
1.21666666665000e+000 9.20646439425152e-001 6.58005197618426e+001
1.29999999998000e+000 9.09200855513583e-001 4.89086386107081e+001
1.38333333331000e+000 8.78039630257643e-001 2.86089623214865e+001
1.46666666664000e+000 7.71617777987856e-001 -5.88299229043614e-001
1.54999999997000e+000 4.00885279669381e-001 -4.96845259404812e+001
1.63333333330000e+000 1.58129715899894e-001 5.50916614917586e+001
1.71666666663000e+000 3.42637601737476e-001 -8.10372437239135e+001
1.79999999996000e+000 6.95784563558206e-001 1.32642689637804e+002
1.88333333329000e+000 7.91209366303661e-001 8.91472150978471e+001
1.96666666662000e+000 8.23698722336874e-001 6.85395375996498e+001
2.04999999995000e+000 8.40204079031424e-001 5.51529734785792e+001
2.13333333328000e+000 8.49741595586321e-001 4.50215291940320e+001
2.21666666661000e+000 8.55317501649191e-001 3.66683924120648e+001
2.29999999994000e+000 8.58215976215280e-001 2.93998988669731e+001
2.38333333327000e+000 8.59054591273599e-001 2.28345240702998e+001
2.46666666660000e+000 8.58185540719133e-001 1.67316939220601e+001
2.54999999993000e+000 8.55903014392153e-001 1.09040498275518e+001
2.63333333326000e+000 8.52048162170506e-001 5.12922124332283e+000
2.71666666659000e+000 8.43140655570426e-001 -8.35978771333444e-001
2.79999999992000e+000 8.24348721374873e-001 -6.82295155632178e+000

! acs =  6 12 5 8 3 5 4
! insert_points = 3
! eps2d = 3e-005 3e-005 eps3d = 0.0001 0.0001
! max_factor = 2.5 extract_factor = 0.2 far_factor=0.5 eps_thin = 0.0001 eps_far = 0.01
! max_pts = 12 max_pts_inc_st = 1 max_pts_inc_nr = 1 rate_pts = 2.5 next_ratio = 1.5 max_images=500000
! auto_fixed_lambda = 0 increase_rate = 0.1 min_lambda = 100 max_lambda = 1e+006
