! 
# GHZ S MA R 50
! Nport = 1
1.20000000000000e+000 9.65304204744756e-001 4.76628425636307e+001
1.28333333333000e+000 9.70836916208420e-001 3.61198612296421e+001
1.36666666666000e+000 9.75593554442470e-001 2.57867809341331e+001
1.44999999999000e+000 9.79532877707876e-001 1.59882244381604e+001
1.53333333332000e+000 9.82345348461213e-001 6.09856038547947e+000
1.61666666665000e+000 9.83118617738499e-001 -4.59981463146500e+000
1.69999999998000e+000 9.79421807609618e-001 -1.71330263789123e+001
1.78333333331000e+000 9.64407926654744e-001 -3.32759910787788e+001
1.86666666664000e+000 9.16720956994036e-001 -5.65837205289510e+001
1.94999999997000e+000 7.70876401207211e-001 -9.45080527303986e+001
2.03333333330000e+000 4.51593877464621e-001 -1.59075633863705e+002
2.11666666663000e+000 2.22143354034721e-001 1.04471048187366e+002
2.19999999996000e+000 1.26680310055390e-001 3.93508832827104e+001
2.28333333329000e+000 9.72184948273454e-002 1.21474456479246e+002
2.36666666662000e+000 3.20437990722698e-001 1.10462206414834e+002
2.44999999995000e+000 4.98721543698929e-001 9.02483282257910e+001
2.53333333328000e+000 6.16306863647588e-001 7.46255892961295e+001
2.61666666661000e+000 6.91893039627847e-001 6.28831933086225e+001
2.69999999994000e+000 7.41890339305766e-001 5.38276175715805e+001
2.78333333327000e+000 7.76332735473840e-001 4.66038174349420e+001
2.86666666660000e+000 8.00980039254184e-001 4.06549242150606e+001
2.94999999993000e+000 8.19177957444714e-001 3.56182688986453e+001
3.03333333326000e+000 8.32932428660899e-001 3.12517098174073e+001
3.11666666659000e+000 8.43486077532003e-001 2.73883956053118e+001
3.19999999992000e+000 8.51628294522019e-001 2.39095153322200e+001

! acs =  6 12 5 8 3 5 4
! insert_points = 3
! eps2d = 3e-005 3e-005 eps3d = 0.0001 0.0001
! max_factor = 2.5 extract_factor = 0.2 far_factor=0.5 eps_thin = 0.0001 eps_far = 0.01
! max_pts = 12 max_pts_inc_st = 1 max_pts_inc_nr = 1 rate_pts = 2.5 next_ratio = 1.5 max_images=500000
! auto_fixed_lambda = 0 increase_rate = 0.1 min_lambda = 100 max_lambda = 1e+006
