! 
# GHZ S MA R 50
! Nport = 1
1.40000000000000e+000 9.84431687416463e-001 1.53869648066037e+001
1.48333333333000e+000 9.86759907510774e-001 5.43444700772350e+000
1.56666666666000e+000 9.87551378108790e-001 -5.04761181874529e+000
1.64999999999000e+000 9.85212998385248e-001 -1.68684651211474e+001
1.73333333332000e+000 9.75430839948462e-001 -3.13217227044182e+001
1.81666666665000e+000 9.44779975505082e-001 -5.08766646310574e+001
1.89999999998000e+000 8.45476567337158e-001 -8.08842029372020e+001
1.98333333331000e+000 5.43716483784057e-001 -1.31840584632728e+002
2.06666666664000e+000 1.30188075433028e-001 1.21012895434415e+002
2.14999999997000e+000 1.99102385271438e-001 -2.03327486638056e+001
2.23333333330000e+000 2.18073472366763e-001 -8.90727460411051e+001
2.31666666663000e+000 2.52368448049268e-001 -1.62897984016152e+002
2.39999999996000e+000 3.71803345678812e-001 1.44846354442877e+002
2.48333333329000e+000 4.97298356760655e-001 1.13515200998985e+002
2.56666666662000e+000 5.94783955361434e-001 9.28096276553214e+001
2.64999999995000e+000 6.64856441251435e-001 7.80076941345683e+001
2.73333333328000e+000 7.14857675488184e-001 6.68307160022524e+001
2.81666666661000e+000 7.51112247232034e-001 5.80259874241478e+001
2.89999999994000e+000 7.77976968004257e-001 5.08471247182297e+001
2.98333333327000e+000 7.98294754266490e-001 4.48238342246669e+001
3.06666666660000e+000 8.13908805282096e-001 3.96460593392806e+001
3.14999999993000e+000 8.26022175379747e-001 3.51010913008457e+001
3.23333333326000e+000 8.35422669569009e-001 3.10375269558135e+001
3.31666666659000e+000 8.42617854570357e-001 2.73436260605430e+001
3.39999999992000e+000 8.47912194888470e-001 2.39336884605877e+001

! acs =  6 12 5 8 3 5 4
! insert_points = 3
! eps2d = 3e-005 3e-005 eps3d = 0.0001 0.0001
! max_factor = 2.5 extract_factor = 0.2 far_factor=0.5 eps_thin = 0.0001 eps_far = 0.01
! max_pts = 12 max_pts_inc_st = 1 max_pts_inc_nr = 1 rate_pts = 2.5 next_ratio = 1.5 max_images=500000
! auto_fixed_lambda = 0 increase_rate = 0.1 min_lambda = 100 max_lambda = 1e+006
