! 
# GHZ S MA R 50
! Nport = 1
1.20000000000000e+000 9.72138417399483e-001 7.49888741793171e+001
1.28333333333000e+000 9.74532891638914e-001 6.17193627847020e+001
1.36666666666000e+000 9.76934527576956e-001 4.99875939716426e+001
1.44999999999000e+000 9.79207894160821e-001 3.93252585798186e+001
1.53333333332000e+000 9.81251214048618e-001 2.93382378349973e+001
1.61666666665000e+000 9.82948640264566e-001 1.96790772123900e+001
1.69999999998000e+000 9.84125745338470e-001 1.00148693176576e+001
1.78333333331000e+000 9.84485893231944e-001 -1.09873085069087e-002
1.86666666664000e+000 9.83477687570498e-001 -1.08335471400794e+001
1.94999999997000e+000 9.79919070314997e-001 -2.30661483355837e+001
2.03333333330000e+000 9.70554325759845e-001 -3.77332324388473e+001
2.11666666663000e+000 9.42435398689084e-001 -5.69519349203155e+001
2.19999999996000e+000 8.19736375733388e-001 -8.58136740299640e+001
2.28333333329000e+000 3.46864757462855e-001 -1.08960093762980e+002
2.36666666662000e+000 4.37507574692148e-001 -7.65977018459127e+001
2.44999999995000e+000 5.56874564493140e-001 -1.04468943205962e+002
2.53333333328000e+000 5.84884647532588e-001 -1.35915218491094e+002
2.61666666661000e+000 5.99330749453971e-001 -1.66669897553688e+002
2.69999999994000e+000 6.22110582418588e-001 1.65608972705788e+002
2.78333333327000e+000 6.52828236172361e-001 1.42264467020582e+002
2.86666666660000e+000 6.85535474263965e-001 1.23291491965579e+002
2.94999999993000e+000 7.15962118301808e-001 1.07987558427451e+002
3.03333333326000e+000 7.42369897789664e-001 9.55403783934582e+001
3.11666666659000e+000 7.64529879615276e-001 8.52612405188443e+001
3.19999999992000e+000 7.82839381664474e-001 7.66230387042974e+001

! acs =  6 12 5 8 3 5 4
! insert_points = 3
! eps2d = 3e-005 3e-005 eps3d = 0.0001 0.0001
! max_factor = 2.5 extract_factor = 0.2 far_factor=0.5 eps_thin = 0.0001 eps_far = 0.01
! max_pts = 12 max_pts_inc_st = 1 max_pts_inc_nr = 1 rate_pts = 2.5 next_ratio = 1.5 max_images=500000
! auto_fixed_lambda = 0 increase_rate = 0.1 min_lambda = 100 max_lambda = 1e+006
