! 
# GHZ S MA R 50
! Nport = 1
2.00000000000000e+000 9.85767819519513e-001 5.89072579508327e+000
2.08333333333000e+000 9.87065026057985e-001 -2.56674918286832e+000
2.16666666666000e+000 9.87050384169879e-001 -1.14882630945271e+001
2.24999999999000e+000 9.84775207997701e-001 -2.12454981970876e+001
2.33333333332000e+000 9.78297232457634e-001 -3.23648392498604e+001
2.41666666665000e+000 9.63351711274598e-001 -4.56646105611898e+001
2.49999999998000e+000 9.29852734879017e-001 -6.25210121634055e+001
2.58333333331000e+000 8.53118905991321e-001 -8.53462511930660e+001
2.66666666664000e+000 6.81712318550400e-001 -1.18101466617751e+002
2.74999999997000e+000 3.83721663650173e-001 -1.66955351391782e+002
2.83333333330000e+000 1.50404732583580e-001 9.36905193980849e+001
2.91666666663000e+000 2.36243503194140e-001 -2.28232021354409e+000
2.99999999996000e+000 3.05615578618230e-001 -4.69419007299861e+001
3.08333333329000e+000 3.20783241253052e-001 -8.45150434965838e+001
3.16666666662000e+000 3.21183613045278e-001 -1.22522229262239e+002
3.24999999995000e+000 3.38684268573471e-001 -1.59948845860744e+002
3.33333333328000e+000 3.81660414783115e-001 1.67536042657031e+002
3.41666666661000e+000 4.38965422692954e-001 1.41817106819228e+002
3.49999999994000e+000 4.97850625240510e-001 1.21937715353953e+002
3.58333333327000e+000 5.51449492438874e-001 1.06361358619448e+002
3.66666666660000e+000 5.97540026909355e-001 9.38727420302955e+001
3.74999999993000e+000 6.36185201254509e-001 8.36284040922705e+001
3.83333333326000e+000 6.68291313274444e-001 7.50506275477362e+001
3.91666666659000e+000 6.94938572709354e-001 6.77370951813585e+001
3.99999999992000e+000 7.17121366520174e-001 6.14012194678851e+001

! acs =  6 12 5 8 3 5 4
! insert_points = 3
! eps2d = 3e-005 3e-005 eps3d = 0.0001 0.0001
! max_factor = 2.5 extract_factor = 0.2 far_factor=0.5 eps_thin = 0.0001 eps_far = 0.01
! max_pts = 12 max_pts_inc_st = 1 max_pts_inc_nr = 1 rate_pts = 2.5 next_ratio = 1.5 max_images=500000
! auto_fixed_lambda = 0 increase_rate = 0.1 min_lambda = 100 max_lambda = 1e+006
