! 
# GHZ S MA R 50
! Nport = 1
2.00000000000000e+000 9.85448355409976e-001 2.25084862169048e+001
2.08333333333000e+000 9.86771214992648e-001 1.46156681396425e+001
2.16666666666000e+000 9.87784433904697e-001 6.81653217731971e+000
2.24999999999000e+000 9.88373253809935e-001 -1.03055924533448e+000
2.33333333332000e+000 9.88356251711578e-001 -9.07884540631281e+000
2.41666666665000e+000 9.87424026260028e-001 -1.75094197727893e+001
2.49999999998000e+000 9.84995838125306e-001 -2.65587800509862e+001
2.58333333331000e+000 9.79842924350956e-001 -3.65721129774287e+001
2.66666666664000e+000 9.68967346371681e-001 -4.81190796126421e+001
2.74999999997000e+000 9.43769118319721e-001 -6.22707224587247e+001
2.83333333330000e+000 8.75154948403331e-001 -8.12612335308994e+001
2.91666666663000e+000 6.61293867175632e-001 -1.08915870713040e+002
2.99999999996000e+000 1.80604927817026e-001 -1.22533713371397e+002
3.08333333329000e+000 3.54507239365762e-001 -4.21615274198799e+001
3.16666666662000e+000 5.55117350304708e-001 -6.27294541061078e+001
3.24999999995000e+000 6.31865381967261e-001 -8.24746790502124e+001
3.33333333328000e+000 6.58387776335235e-001 -1.00706230695306e+002
3.41666666661000e+000 6.63775525017734e-001 -1.18260995614125e+002
3.49999999994000e+000 6.60866834512128e-001 -1.35452829312111e+002
3.58333333327000e+000 6.56308113482386e-001 -1.52249795138181e+002
3.66666666660000e+000 6.53651687369482e-001 -1.68445224336796e+002
3.74999999993000e+000 6.54460015418410e-001 1.76215229483460e+002
3.83333333326000e+000 6.58948748534462e-001 1.61943472405990e+002
3.91666666659000e+000 6.66544962160168e-001 1.48862526520635e+002
3.99999999992000e+000 6.76353265566399e-001 1.37001314816517e+002

! acs =  6 12 5 8 3 5 4
! insert_points = 3
! eps2d = 3e-005 3e-005 eps3d = 0.0001 0.0001
! max_factor = 2.5 extract_factor = 0.2 far_factor=0.5 eps_thin = 0.0001 eps_far = 0.01
! max_pts = 12 max_pts_inc_st = 1 max_pts_inc_nr = 1 rate_pts = 2.5 next_ratio = 1.5 max_images=500000
! auto_fixed_lambda = 0 increase_rate = 0.1 min_lambda = 100 max_lambda = 1e+006
