! 
# GHZ S MA R 50
! Nport = 1
2.00000000000000e+000 9.85201073674332e-001 2.35010226753066e+001
2.08333333333000e+000 9.86203103169838e-001 1.69249024365039e+001
2.16666666666000e+000 9.87018045058127e-001 1.05701060096137e+001
2.24999999999000e+000 9.87612922595254e-001 4.34053302528513e+000
2.33333333332000e+000 9.87938607215185e-001 -1.85674155565287e+000
2.41666666665000e+000 9.87916277975027e-001 -8.11888406087698e+000
2.49999999998000e+000 9.87405123665119e-001 -1.45580508631369e+001
2.58333333331000e+000 9.86115971435758e-001 -2.13201836483550e+001
2.66666666664000e+000 9.83352338806488e-001 -2.86235254790491e+001
2.74999999997000e+000 9.77118784710891e-001 -3.68490523966705e+001
2.83333333330000e+000 9.60448926928998e-001 -4.67770659799845e+001
2.91666666663000e+000 9.02836000384516e-001 -6.01446824920210e+001
2.99999999996000e+000 6.69200941176455e-001 -7.67460158989975e+001
3.08333333329000e+000 4.53616561337465e-001 -5.14204062160571e+001
3.16666666662000e+000 6.58778650505869e-001 -4.83836303117424e+001
3.24999999995000e+000 7.47859398966225e-001 -5.93808274780736e+001
3.33333333328000e+000 7.76596352368977e-001 -7.05563881619984e+001
3.41666666661000e+000 7.80788097079742e-001 -8.16174174908487e+001
3.49999999994000e+000 7.72879502843072e-001 -9.28425421308067e+001
3.58333333327000e+000 7.58229589300582e-001 -1.04405716700650e+002
3.66666666660000e+000 7.39901215633230e-001 -1.16376987225193e+002
3.74999999993000e+000 7.20158561741691e-001 -1.28744492732689e+002
3.83333333326000e+000 7.00921535371547e-001 -1.41426519033880e+002
3.91666666659000e+000 6.83820510912846e-001 -1.54281322384480e+002
3.99999999992000e+000 6.70099200767699e-001 -1.67122033344265e+002

! acs =  6 12 5 8 3 5 4
! insert_points = 3
! eps2d = 3e-005 3e-005 eps3d = 0.0001 0.0001
! max_factor = 2.5 extract_factor = 0.2 far_factor=0.5 eps_thin = 0.0001 eps_far = 0.01
! max_pts = 12 max_pts_inc_st = 1 max_pts_inc_nr = 1 rate_pts = 2.5 next_ratio = 1.5 max_images=500000
! auto_fixed_lambda = 0 increase_rate = 0.1 min_lambda = 100 max_lambda = 1e+006
