! 
# GHZ S MA R 50
! Nport = 1
2.00000000000000e+000 9.17903453729835e-001 1.03206354338167e+002
2.08333333333000e+000 9.17879335497124e-001 9.42043742795584e+001
2.16666666666000e+000 9.18299046148735e-001 8.58636420501817e+001
2.24999999999000e+000 9.18986779194021e-001 7.80933845070180e+001
2.33333333332000e+000 9.19786183773816e-001 7.08006626258608e+001
2.41666666665000e+000 9.20549103457085e-001 6.38923488843092e+001
2.49999999998000e+000 9.21119582275293e-001 5.72749126775374e+001
2.58333333331000e+000 9.21311841503171e-001 5.08524161081595e+001
2.66666666664000e+000 9.20878230225888e-001 4.45228052257449e+001
2.74999999997000e+000 9.19459138840192e-001 3.81722192589375e+001
2.83333333330000e+000 9.16499833550690e-001 3.16666034038244e+001
2.91666666663000e+000 9.11106026753087e-001 2.48393550404863e+001
2.99999999996000e+000 9.01785434476197e-001 1.74730883880082e+001
3.08333333329000e+000 8.85980057885415e-001 9.27329814599999e+000
3.16666666662000e+000 8.59240277665109e-001 -1.66250618730503e-001
3.24999999995000e+000 8.13928868461954e-001 -1.13948038315094e+001
3.33333333328000e+000 7.37988356637237e-001 -2.50779079193818e+001
3.41666666661000e+000 6.17097089485596e-001 -4.17483899003979e+001
3.49999999994000e+000 4.48661871189116e-001 -6.10586541272302e+001
3.58333333327000e+000 2.68560968353559e-001 -8.06392495856116e+001
3.66666666660000e+000 1.58076695404661e-001 -1.00012562996829e+002
3.74999999993000e+000 2.07217241300081e-001 -1.46688325717700e+002
3.83333333326000e+000 4.26196517718283e-001 1.54977233752293e+002
3.91666666659000e+000 5.97865773669443e-001 1.15100605032997e+002
3.99999999992000e+000 6.82315851463318e-001 9.16653347593415e+001

! acs =  6 12 5 8 3 5 4
! insert_points = 3
! eps2d = 3e-005 3e-005 eps3d = 0.0001 0.0001
! max_factor = 2.5 extract_factor = 0.2 far_factor=0.5 eps_thin = 0.0001 eps_far = 0.01
! max_pts = 12 max_pts_inc_st = 1 max_pts_inc_nr = 1 rate_pts = 2.5 next_ratio = 1.5 max_images=500000
! auto_fixed_lambda = 0 increase_rate = 0.1 min_lambda = 100 max_lambda = 1e+006
