! 
# GHZ S MA R 50
! Nport = 1
2.00000000000000e+000 9.13344360235469e-001 1.10950256194927e+002
2.08333333333000e+000 9.12463272265971e-001 1.02053393312079e+002
2.16666666666000e+000 9.12115110846163e-001 9.38032233040023e+001
2.24999999999000e+000 9.12125305290980e-001 8.61236841560773e+001
2.33333333332000e+000 9.12333952169874e-001 7.89340859006562e+001
2.41666666665000e+000 9.12587804511171e-001 7.21516473280208e+001
2.49999999998000e+000 9.12726137567458e-001 6.56918980904444e+001
2.58333333331000e+000 9.12559087418881e-001 5.94672196164363e+001
2.66666666664000e+000 9.11833774757768e-001 5.33835163831318e+001
2.74999999997000e+000 9.10178024175838e-001 4.73346157365151e+001
2.83333333330000e+000 9.07000845266181e-001 4.11934385240794e+001
2.91666666663000e+000 9.01306629950240e-001 3.47981723035685e+001
2.99999999996000e+000 8.91332168512767e-001 2.79306103054176e+001
3.08333333329000e+000 8.73813923812170e-001 2.02832670570556e+001
3.16666666662000e+000 8.42503559346019e-001 1.14167497607723e+001
3.24999999995000e+000 7.85398201682620e-001 7.43365344685431e-001
3.33333333328000e+000 6.81409207877666e-001 -1.22585129256417e+001
3.41666666661000e+000 5.05863532324826e-001 -2.67116263154772e+001
3.49999999994000e+000 2.72784000348633e-001 -3.39090470469696e+001
3.58333333327000e+000 1.40352634351424e-001 9.17608290140359e+000
3.66666666660000e+000 2.21479665838940e-001 3.46933285470202e+001
3.74999999993000e+000 2.22633155220171e-001 2.40210240809363e+001
3.83333333326000e+000 5.79579761236999e-002 7.68882147874404e+001
3.91666666659000e+000 4.10493135733142e-001 1.12373317369736e+002
3.99999999992000e+000 6.49878069577814e-001 8.61342808292562e+001

! acs =  6 12 5 8 3 5 4
! insert_points = 3
! eps2d = 3e-005 3e-005 eps3d = 0.0001 0.0001
! max_factor = 2.5 extract_factor = 0.2 far_factor=0.5 eps_thin = 0.0001 eps_far = 0.01
! max_pts = 12 max_pts_inc_st = 1 max_pts_inc_nr = 1 rate_pts = 2.5 next_ratio = 1.5 max_images=500000
! auto_fixed_lambda = 0 increase_rate = 0.1 min_lambda = 100 max_lambda = 1e+006
