! 
# GHZ S MA R 50
! Nport = 1
2.50000000000000e+000 9.21119582275394e-001 5.72749126759756e+001
2.58333333333000e+000 9.21311841503153e-001 5.08524161066335e+001
2.66666666666000e+000 9.20878230225683e-001 4.45228052242280e+001
2.74999999999000e+000 9.19459138839695e-001 3.81722192574002e+001
2.83333333332000e+000 9.16499833549735e-001 3.16666034022304e+001
2.91666666665000e+000 9.11106026751398e-001 2.48393550387929e+001
2.99999999998000e+000 9.01785434473313e-001 1.74730883861538e+001
3.08333333331000e+000 8.85980057880539e-001 9.27329814390228e+000
3.16666666664000e+000 8.59240277656851e-001 -1.66250621185628e-001
3.24999999997000e+000 8.13928868447981e-001 -1.13948038344712e+001
3.33333333330000e+000 7.37988356614141e-001 -2.50779079230126e+001
3.41666666663000e+000 6.17097089450427e-001 -4.17483899047615e+001
3.49999999996000e+000 4.48661871144813e-001 -6.10586541320433e+001
3.58333333329000e+000 2.68560968314843e-001 -8.06392495900408e+001
3.66666666662000e+000 1.58076695393961e-001 -1.00012563003135e+002
3.74999999995000e+000 2.07217241337327e-001 -1.46688325732509e+002
3.83333333328000e+000 4.26196517772878e-001 1.54977233740171e+002
3.91666666661000e+000 5.97865773697657e-001 1.15100605025767e+002
3.99999999994000e+000 6.82315851477804e-001 9.16653347549865e+001
4.08333333327000e+000 7.29559613219732e-001 7.68328157131444e+001
4.16666666660000e+000 7.60467764352761e-001 6.64225039584244e+001
4.24999999993000e+000 7.82566794761144e-001 5.85254087414489e+001
4.33333333326000e+000 7.99181671647629e-001 5.21966479885457e+001
4.41666666659000e+000 8.12074292923482e-001 4.69194491338737e+001
4.49999999992000e+000 8.22296275598529e-001 4.23865085810747e+001

! acs =  6 12 5 8 3 5 4
! insert_points = 3
! eps2d = 3e-005 3e-005 eps3d = 0.0001 0.0001
! max_factor = 2.5 extract_factor = 0.2 far_factor=0.5 eps_thin = 0.0001 eps_far = 0.01
! max_pts = 12 max_pts_inc_st = 1 max_pts_inc_nr = 1 rate_pts = 2.5 next_ratio = 1.5 max_images=500000
! auto_fixed_lambda = 0 increase_rate = 0.1 min_lambda = 100 max_lambda = 1e+006
