! 
# GHZ S MA R 50
! Nport = 1
2.50000000000000e+000 9.12726137567463e-001 6.56918980889263e+001
2.58333333333000e+000 9.12559087418786e-001 5.94672196149629e+001
2.66666666666000e+000 9.11833774757500e-001 5.33835163816803e+001
2.74999999999000e+000 9.10178024175288e-001 4.73346157350579e+001
2.83333333332000e+000 9.07000845265167e-001 4.11934385225825e+001
2.91666666665000e+000 9.01306629948453e-001 3.47981723019870e+001
2.99999999998000e+000 8.91332168509641e-001 2.79306103036910e+001
3.08333333331000e+000 8.73813923806648e-001 2.02832670550947e+001
3.16666666664000e+000 8.42503559336047e-001 1.14167497584521e+001
3.24999999997000e+000 7.85398201664328e-001 7.43365341855659e-001
3.33333333330000e+000 6.81409207844903e-001 -1.22585129290358e+001
3.41666666663000e+000 5.05863532273499e-001 -2.67116263187646e+001
3.49999999996000e+000 2.72784000293456e-001 -3.39090470455142e+001
3.58333333329000e+000 1.40352634356838e-001 9.17608291724576e+000
3.66666666662000e+000 2.21479665855952e-001 3.46933285464707e+001
3.74999999995000e+000 2.22633155199233e-001 2.40210240774353e+001
3.83333333328000e+000 5.79579761342521e-002 7.68882148632533e+001
3.91666666661000e+000 4.10493135817078e-001 1.12373317362567e+002
3.99999999994000e+000 6.49878069612734e-001 8.61342808242472e+001
4.08333333327000e+000 7.45371943568670e-001 6.97055018669992e+001
4.16666666660000e+000 7.89032890982836e-001 5.91236984416300e+001
4.24999999993000e+000 8.13397102843941e-001 5.15647745018880e+001
4.33333333326000e+000 8.29022421561663e-001 4.57144198478888e+001
4.41666666659000e+000 8.39956414069037e-001 4.09246759812452e+001
4.49999999992000e+000 8.48034559648060e-001 3.68440946616629e+001

! acs =  6 12 5 8 3 5 4
! insert_points = 3
! eps2d = 3e-005 3e-005 eps3d = 0.0001 0.0001
! max_factor = 2.5 extract_factor = 0.2 far_factor=0.5 eps_thin = 0.0001 eps_far = 0.01
! max_pts = 12 max_pts_inc_st = 1 max_pts_inc_nr = 1 rate_pts = 2.5 next_ratio = 1.5 max_images=500000
! auto_fixed_lambda = 0 increase_rate = 0.1 min_lambda = 100 max_lambda = 1e+006
