! 
# GHZ S MA R 50
! Nport = 1
3.20000000000000e+000 9.02732345522445e-001 4.27893761892954e+001
3.28333333333000e+000 8.96842196145218e-001 3.67052723089631e+001
3.36666666666000e+000 8.87638828421772e-001 3.02601322067956e+001
3.44999999999000e+000 8.73102285602630e-001 2.32638123179791e+001
3.53333333332000e+000 8.49780937368985e-001 1.54619769939400e+001
3.61666666665000e+000 8.11725071239805e-001 6.52526827468111e+000
3.69999999998000e+000 7.48984357348067e-001 -3.91119546635720e+000
3.78333333331000e+000 6.46973190128168e-001 -1.59969883474798e+001
3.86666666664000e+000 4.92439792785306e-001 -2.86582356698503e+001
3.94999999997000e+000 2.97368677356765e-001 -3.55941662443376e+001
4.03333333330000e+000 1.56584690717648e-001 -8.67925107198339e+000
4.11666666663000e+000 2.16979554243240e-001 2.54209274238607e+001
4.19999999996000e+000 2.98560752476180e-001 1.72044068901778e+001
4.28333333329000e+000 2.95110461719585e-001 -1.03441648646466e+001
4.36666666662000e+000 1.92012816410888e-001 -7.85816111126407e+001
4.44999999995000e+000 3.15530105559484e-001 1.68020976011162e+002
4.53333333328000e+000 5.39376200311756e-001 1.19244915070186e+002
4.61666666661000e+000 6.61119334072062e-001 9.39154622417850e+001
4.69999999994000e+000 7.24025113036958e-001 7.83876556925338e+001
4.78333333327000e+000 7.60503682902956e-001 6.77244885403057e+001
4.86666666660000e+000 7.84092801712734e-001 5.97608761709893e+001
4.94999999993000e+000 8.00598938763967e-001 5.34424277351105e+001
5.03333333326000e+000 8.12793368694003e-001 4.82036311159313e+001
5.11666666659000e+000 8.22143897316090e-001 4.37153560055662e+001
5.19999999992000e+000 8.29498132686151e-001 3.97728250936125e+001

! acs =  6 12 5 8 3 5 4
! insert_points = 3
! eps2d = 3e-005 3e-005 eps3d = 0.0001 0.0001
! max_factor = 2.5 extract_factor = 0.2 far_factor=0.5 eps_thin = 0.0001 eps_far = 0.01
! max_pts = 12 max_pts_inc_st = 1 max_pts_inc_nr = 1 rate_pts = 2.5 next_ratio = 1.5 max_images=500000
! auto_fixed_lambda = 0 increase_rate = 0.1 min_lambda = 100 max_lambda = 1e+006
