! 
# GHZ S MA R 50
! Nport = 1
3.00000000000000e+000 9.14847855614258e-001 5.46778451141171e+001
3.08333333333000e+000 9.13419201423131e-001 4.83526861170068e+001
3.16666666666000e+000 9.10712856376965e-001 4.17718211145992e+001
3.24999999999000e+000 9.05845129697700e-001 3.47507615552500e+001
3.33333333332000e+000 8.97272212827080e-001 2.70304742794796e+001
3.41666666665000e+000 8.82197083520248e-001 1.82329978279034e+001
3.49999999998000e+000 8.55424525869778e-001 7.79162620555345e+000
3.58333333331000e+000 8.07357245407373e-001 -5.14622310610458e+000
3.66666666664000e+000 7.21770733804832e-001 -2.18053376438265e+001
3.74999999997000e+000 5.79269545310838e-001 -4.37508155095499e+001
3.83333333330000e+000 3.82061917348332e-001 -7.31730581688803e+001
3.91666666663000e+000 1.95690054545696e-001 -1.18071081613724e+002
3.99999999996000e+000 1.40441416381853e-001 1.75812966650463e+002
4.08333333329000e+000 2.16516307809041e-001 1.53167300990415e+002
4.16666666662000e+000 4.59189158141617e-001 1.36171359123462e+002
4.24999999995000e+000 6.65510736655308e-001 1.08355506339453e+002
4.33333333328000e+000 7.47213325407343e-001 8.89655075491988e+001
4.41666666661000e+000 7.82932903601204e-001 7.63077692220790e+001
4.49999999994000e+000 8.03508165325385e-001 6.72678495884384e+001
4.58333333327000e+000 8.17556079774832e-001 6.02899888322499e+001
4.66666666660000e+000 8.28014127182761e-001 5.46017374180507e+001
4.74999999993000e+000 8.36167314147071e-001 4.97827460943862e+001
4.83333333326000e+000 8.42699048166863e-001 4.55836823490847e+001
4.91666666659000e+000 8.48023422080162e-001 4.18460515349432e+001
4.99999999992000e+000 8.52412917593591e-001 3.84634481527802e+001

! acs =  6 12 5 8 3 5 4
! insert_points = 3
! eps2d = 3e-005 3e-005 eps3d = 0.0001 0.0001
! max_factor = 2.5 extract_factor = 0.2 far_factor=0.5 eps_thin = 0.0001 eps_far = 0.01
! max_pts = 12 max_pts_inc_st = 1 max_pts_inc_nr = 1 rate_pts = 2.5 next_ratio = 1.5 max_images=500000
! auto_fixed_lambda = 0 increase_rate = 0.1 min_lambda = 100 max_lambda = 1e+006
