! 
# GHZ S MA R 50
! Nport = 1
3.00000000000000e+000 9.16462043649349e-001 5.09133329360811e+001
3.08333333333000e+000 9.14822926501311e-001 4.47784511277837e+001
3.16666666666000e+000 9.11974779691849e-001 3.84823233019220e+001
3.24999999999000e+000 9.07231778546934e-001 3.18948876797251e+001
3.33333333332000e+000 8.99492546016136e-001 2.48473486102575e+001
3.41666666665000e+000 8.86940080170865e-001 1.71141098434770e+001
3.49999999998000e+000 8.66520481481721e-001 8.38834153695000e+000
3.58333333331000e+000 8.33092828373742e-001 -1.74500490851927e+000
3.66666666664000e+000 7.78320624978201e-001 -1.38170491457171e+001
3.74999999997000e+000 6.90368644317032e-001 -2.83896853458243e+001
3.83333333330000e+000 5.58334584998640e-001 -4.56968919464952e+001
3.91666666663000e+000 3.87346634486698e-001 -6.47142436497297e+001
3.99999999996000e+000 2.17951968353710e-001 -8.08863746063993e+001
4.08333333329000e+000 1.28573718697070e-001 -8.56733146814389e+001
4.16666666662000e+000 1.82038097607930e-001 -1.17525943396246e+002
4.24999999995000e+000 3.81188164251297e-001 -1.76984874365308e+002
4.33333333328000e+000 5.70879642523777e-001 1.36978496942606e+002
4.41666666661000e+000 6.67675382078528e-001 1.08677935835735e+002
4.49999999994000e+000 7.18507805856460e-001 9.08876618878570e+001
4.58333333327000e+000 7.50292567366688e-001 7.86214254474698e+001
4.66666666660000e+000 7.72601183813127e-001 6.94675965878310e+001
4.74999999993000e+000 7.89307090668965e-001 6.22285196570808e+001
4.83333333326000e+000 8.02309574620594e-001 5.62562048701625e+001
4.91666666659000e+000 8.12687921637868e-001 5.11705472017600e+001
4.99999999992000e+000 8.21118633315623e-001 4.67332209368289e+001

! acs =  6 12 5 8 3 5 4
! insert_points = 3
! eps2d = 3e-005 3e-005 eps3d = 0.0001 0.0001
! max_factor = 2.5 extract_factor = 0.2 far_factor=0.5 eps_thin = 0.0001 eps_far = 0.01
! max_pts = 12 max_pts_inc_st = 1 max_pts_inc_nr = 1 rate_pts = 2.5 next_ratio = 1.5 max_images=500000
! auto_fixed_lambda = 0 increase_rate = 0.1 min_lambda = 100 max_lambda = 1e+006
