! 
# GHZ S MA R 50
! Nport = 1
3.00000000000000e+000 9.12152913732966e-001 5.40036314313570e+001
3.08333333333000e+000 9.10072003569969e-001 4.80158254175006e+001
3.16666666666000e+000 9.06701903736452e-001 4.18930429666541e+001
3.24999999999000e+000 9.01308822163330e-001 3.55104393679819e+001
3.33333333332000e+000 8.92704426773245e-001 2.87050843296155e+001
3.41666666665000e+000 8.78905129549820e-001 2.12575964079471e+001
3.49999999998000e+000 8.56523674410850e-001 1.28670781018280e+001
3.58333333331000e+000 8.19738000074493e-001 3.12390136111499e+000
3.66666666664000e+000 7.58857374826811e-001 -8.49282315736859e+000
3.74999999997000e+000 6.59696025568917e-001 -2.24960905756048e+001
3.83333333330000e+000 5.08654175876884e-001 -3.88897111778716e+001
3.91666666663000e+000 3.10729360326825e-001 -5.56368796692017e+001
3.99999999996000e+000 1.11489650734812e-001 -5.90292646815122e+001
4.08333333329000e+000 8.22209346523939e-002 2.78488148552853e+001
4.16666666662000e+000 1.35190970355373e-001 1.87663857429757e+001
4.24999999995000e+000 7.13788181867457e-002 -6.01471588924447e+001
4.33333333328000e+000 2.83933738303721e-001 1.67950860408261e+002
4.41666666661000e+000 5.48350415865288e-001 1.23057223043749e+002
4.49999999994000e+000 6.75833691248469e-001 9.71839405321195e+001
4.58333333327000e+000 7.35122607970652e-001 8.12695777467200e+001
4.66666666660000e+000 7.68070535361073e-001 7.04024171617723e+001
4.74999999993000e+000 7.89312570295835e-001 6.23072073888010e+001
4.83333333326000e+000 8.04368529986946e-001 5.58872243543218e+001
4.91666666659000e+000 8.15683308547989e-001 5.05625911498318e+001
4.99999999992000e+000 8.24508213672623e-001 4.59990588504720e+001

! acs =  6 12 5 8 3 5 4
! insert_points = 3
! eps2d = 3e-005 3e-005 eps3d = 0.0001 0.0001
! max_factor = 2.5 extract_factor = 0.2 far_factor=0.5 eps_thin = 0.0001 eps_far = 0.01
! max_pts = 12 max_pts_inc_st = 1 max_pts_inc_nr = 1 rate_pts = 2.5 next_ratio = 1.5 max_images=500000
! auto_fixed_lambda = 0 increase_rate = 0.1 min_lambda = 100 max_lambda = 1e+006
