! 
# GHZ S MA R 50
! Nport = 1
3.00000000000000e+000 9.08709373932722e-001 6.03604193549763e+001
3.08333333333000e+000 9.06896681170402e-001 5.45768105102893e+001
3.16666666666000e+000 9.03945850324306e-001 4.86838474043685e+001
3.24999999999000e+000 8.99118754591867e-001 4.25545943604373e+001
3.33333333332000e+000 8.91155394022854e-001 3.60175600409389e+001
3.41666666665000e+000 8.77810309099212e-001 2.88320603458605e+001
3.49999999998000e+000 8.54929467609651e-001 2.06525246525854e+001
3.58333333331000e+000 8.14662223014115e-001 1.09902632226969e+001
3.66666666664000e+000 7.42548576809556e-001 -7.60376571185333e-001
3.74999999997000e+000 6.16000903160162e-001 -1.49171851871418e+001
3.83333333330000e+000 4.17994988547591e-001 -2.94985683676424e+001
3.91666666663000e+000 1.88751564282317e-001 -2.93909199027237e+001
3.99999999996000e+000 1.42512526031204e-001 3.32753990705929e+001
4.08333333329000e+000 2.41270865256004e-001 4.03944041010738e+001
4.16666666662000e+000 2.37059565698616e-001 2.32874659454620e+001
4.24999999995000e+000 3.63195668967974e-002 -4.76379636490423e+000
4.33333333328000e+000 3.52527471502786e-001 1.32911917488679e+002
4.41666666661000e+000 6.21726281650154e-001 1.00702472291655e+002
4.49999999994000e+000 7.32247087755705e-001 8.12189112755421e+001
4.58333333327000e+000 7.80766056608472e-001 6.89512893874657e+001
4.66666666660000e+000 8.06650648001177e-001 6.03630517844284e+001
4.74999999993000e+000 8.22734532518927e-001 5.38193079691790e+001
4.83333333326000e+000 8.33785656101656e-001 4.85250133908385e+001
4.91666666659000e+000 8.41884220107017e-001 4.40553818201781e+001
4.99999999992000e+000 8.48070525706427e-001 4.01633530019917e+001

! acs =  6 12 5 8 3 5 4
! insert_points = 3
! eps2d = 3e-005 3e-005 eps3d = 0.0001 0.0001
! max_factor = 2.5 extract_factor = 0.2 far_factor=0.5 eps_thin = 0.0001 eps_far = 0.01
! max_pts = 12 max_pts_inc_st = 1 max_pts_inc_nr = 1 rate_pts = 2.5 next_ratio = 1.5 max_images=500000
! auto_fixed_lambda = 0 increase_rate = 0.1 min_lambda = 100 max_lambda = 1e+006
