! 
# GHZ S MA R 50
! Nport = 1
3.50000000000000e+000 8.87345055054619e-001 3.20879644664937e+001
3.58333333333000e+000 8.74753662503858e-001 2.52063191501918e+001
3.66666666666000e+000 8.53906841547341e-001 1.74717620096029e+001
3.74999999999000e+000 8.18865630636447e-001 8.50705939843915e+000
3.83333333332000e+000 7.59375720247092e-001 -2.14961148612701e+000
3.91666666665000e+000 6.59806363048905e-001 -1.48483980609110e+001
3.99999999998000e+000 5.04880490541291e-001 -2.89938382126722e+001
4.08333333331000e+000 3.03182548175600e-001 -4.00415136384723e+001
4.16666666664000e+000 1.28037670213448e-001 -2.27361244460882e+001
4.24999999997000e+000 1.44754203715666e-001 3.01524890758608e+001
4.33333333330000e+000 1.88717474355332e-001 2.80373103039951e+001
4.41666666663000e+000 1.02311794952772e-001 9.91928157278152e+000
4.49999999996000e+000 1.76436084386045e-001 1.47888696369931e+002
4.58333333329000e+000 4.90220430680490e-001 1.14943549453840e+002
4.66666666662000e+000 6.58301580412663e-001 9.08410102114727e+001
4.74999999995000e+000 7.33444254070124e-001 7.55717544153358e+001
4.83333333328000e+000 7.71848845724308e-001 6.52268582763707e+001
4.91666666661000e+000 7.94838751892243e-001 5.75990558819878e+001
4.99999999994000e+000 8.10274288603811e-001 5.15913904473369e+001
5.08333333327000e+000 8.21452793163996e-001 4.66271806718193e+001
5.16666666660000e+000 8.29959819132166e-001 4.23786754690385e+001
5.24999999993000e+000 8.36650576941325e-001 3.86460312315874e+001
5.33333333326000e+000 8.42030029689367e-001 3.53000264139860e+001
5.41666666659000e+000 8.46417785135249e-001 3.22529640917582e+001
5.49999999992000e+000 8.50027099631718e-001 2.94428963772864e+001

! acs =  6 12 5 8 3 5 4
! insert_points = 3
! eps2d = 3e-005 3e-005 eps3d = 0.0001 0.0001
! max_factor = 2.5 extract_factor = 0.2 far_factor=0.5 eps_thin = 0.0001 eps_far = 0.01
! max_pts = 12 max_pts_inc_st = 1 max_pts_inc_nr = 1 rate_pts = 2.5 next_ratio = 1.5 max_images=500000
! auto_fixed_lambda = 0 increase_rate = 0.1 min_lambda = 100 max_lambda = 1e+006
