! 
# GHZ S MA R 50
! Nport = 1
3.50000000000000e+000 8.96775733625132e-001 2.18826621122354e+001
3.58333333333000e+000 8.85503908501712e-001 1.47728773958553e+001
3.66666666666000e+000 8.67847048449099e-001 6.90698851016872e+000
3.74999999999000e+000 8.40197091816796e-001 -1.99565444420338e+000
3.83333333332000e+000 7.96985643454628e-001 -1.22770537204072e+001
3.91666666665000e+000 7.30371691072615e-001 -2.42901720965621e+001
3.99999999998000e+000 6.31819411485222e-001 -3.82108803452986e+001
4.08333333331000e+000 4.98716639633314e-001 -5.35469000571848e+001
4.16666666664000e+000 3.47176262896215e-001 -6.80907732938596e+001
4.24999999997000e+000 2.22978645855548e-001 -7.67737342789673e+001
4.33333333330000e+000 1.87868230211080e-001 -8.50972146563016e+001
4.41666666663000e+000 2.55615769053599e-001 -1.24984406944484e+002
4.49999999996000e+000 4.08798274386961e-001 1.78981854567293e+002
4.58333333329000e+000 5.47528772311873e-001 1.36585796621464e+002
4.66666666662000e+000 6.30738369387112e-001 1.09701811118005e+002
4.74999999995000e+000 6.81667952452797e-001 9.21451117356879e+001
4.83333333328000e+000 7.16299238479690e-001 7.97663386629440e+001
4.91666666661000e+000 7.41679155488737e-001 7.04273138786336e+001
4.99999999994000e+000 7.61162200107321e-001 6.30076319297807e+001
5.08333333327000e+000 7.76578252554405e-001 5.68787634659499e+001
5.16666666660000e+000 7.89039047974876e-001 5.16630870569821e+001
5.24999999993000e+000 7.99271782212618e-001 4.71199697140940e+001
5.33333333326000e+000 8.07776580538763e-001 4.30884069111181e+001
5.41666666659000e+000 8.14909768534955e-001 3.94562396983813e+001
5.49999999992000e+000 8.20931913084643e-001 3.61426628692524e+001

! acs =  6 12 5 8 3 5 4
! insert_points = 3
! eps2d = 3e-005 3e-005 eps3d = 0.0001 0.0001
! max_factor = 2.5 extract_factor = 0.2 far_factor=0.5 eps_thin = 0.0001 eps_far = 0.01
! max_pts = 12 max_pts_inc_st = 1 max_pts_inc_nr = 1 rate_pts = 2.5 next_ratio = 1.5 max_images=500000
! auto_fixed_lambda = 0 increase_rate = 0.1 min_lambda = 100 max_lambda = 1e+006
