! 
# GHZ S MA R 50
! Nport = 1
3.00000000000000e+000 9.13581354426570e-001 5.80625812016887e+001
3.08333333333000e+000 9.13359432264285e-001 5.22456378069589e+001
3.16666666666000e+000 9.12625846233121e-001 4.64573410300899e+001
3.24999999999000e+000 9.11107159606882e-001 4.06237095091125e+001
3.33333333332000e+000 9.08407407808788e-001 3.46579649603545e+001
3.41666666665000e+000 9.03933893459335e-001 2.84548323965790e+001
3.49999999998000e+000 8.96775733627272e-001 2.18826621138697e+001
3.58333333331000e+000 8.85503908505071e-001 1.47728773976427e+001
3.66666666664000e+000 8.67847048454358e-001 6.90698851216805e+000
3.74999999997000e+000 8.40197091825031e-001 -1.99565444191586e+000
3.83333333330000e+000 7.96985643467454e-001 -1.22770537177452e+001
3.91666666663000e+000 7.30371691092130e-001 -2.42901720934488e+001
3.99999999996000e+000 6.31819411513167e-001 -3.82108803417447e+001
4.08333333329000e+000 4.98716639668656e-001 -5.35469000534582e+001
4.16666666662000e+000 3.47176262931769e-001 -6.80907732908234e+001
4.24999999995000e+000 2.22978645876729e-001 -7.67737342778879e+001
4.33333333328000e+000 1.87868230206683e-001 -8.50972146513994e+001
4.41666666661000e+000 2.55615769025097e-001 -1.24984406931252e+002
4.49999999994000e+000 4.08798274347464e-001 1.78981854579630e+002
4.58333333327000e+000 5.47528772285944e-001 1.36585796629531e+002
4.66666666660000e+000 6.30738369371919e-001 1.09701811123119e+002
4.74999999993000e+000 6.81667952442936e-001 9.21451117391632e+001
4.83333333326000e+000 7.16299238472670e-001 7.97663386654909e+001
4.91666666659000e+000 7.41679155483446e-001 7.04273138806126e+001
4.99999999992000e+000 7.61162200103189e-001 6.30076319313878e+001

! acs =  6 12 5 8 3 5 4
! insert_points = 3
! eps2d = 3e-005 3e-005 eps3d = 0.0001 0.0001
! max_factor = 2.5 extract_factor = 0.2 far_factor=0.5 eps_thin = 0.0001 eps_far = 0.01
! max_pts = 12 max_pts_inc_st = 1 max_pts_inc_nr = 1 rate_pts = 2.5 next_ratio = 1.5 max_images=500000
! auto_fixed_lambda = 0 increase_rate = 0.1 min_lambda = 100 max_lambda = 1e+006
