! 
# GHZ S MA R 50
! Nport = 1
3.00000000000000e+000 9.05740572515945e-001 6.68342157145173e+001
3.08333333333000e+000 9.05233644579858e-001 6.12082411525328e+001
3.16666666666000e+000 9.04281144589480e-001 5.56335715071789e+001
3.24999999999000e+000 9.02595594112899e-001 5.00366141856253e+001
3.33333333332000e+000 8.99742505031404e-001 4.43280006017644e+001
3.41666666665000e+000 8.95035124001411e-001 3.83946628001949e+001
3.49999999998000e+000 8.87345055056953e-001 3.20879644680675e+001
3.58333333331000e+000 8.74753662507696e-001 2.52063191519324e+001
3.66666666664000e+000 8.53906841553739e-001 1.74717620115896e+001
3.74999999997000e+000 8.18865630647272e-001 8.50705940077445e+000
3.83333333330000e+000 7.59375720265465e-001 -2.14961148332956e+000
3.91666666663000e+000 6.59806363079035e-001 -1.48483980576269e+001
3.99999999996000e+000 5.04880490585349e-001 -2.89938382093116e+001
4.08333333329000e+000 3.03182548225724e-001 -4.00415136372455e+001
4.16666666662000e+000 1.28037670237986e-001 -2.27361244594753e+001
4.24999999995000e+000 1.44754203697351e-001 3.01524890717679e+001
4.33333333328000e+000 1.88717474356943e-001 2.80373103072267e+001
4.41666666661000e+000 1.02311794995947e-001 9.91928157699319e+000
4.49999999994000e+000 1.76436084302890e-001 1.47888696377311e+002
4.58333333327000e+000 4.90220430622087e-001 1.14943549460987e+002
4.66666666660000e+000 6.58301580386725e-001 9.08410102160136e+001
4.74999999993000e+000 7.33444254057833e-001 7.55717544182871e+001
4.83333333326000e+000 7.71848845717411e-001 6.52268582784678e+001
4.91666666659000e+000 7.94838751887821e-001 5.75990558835932e+001
4.99999999992000e+000 8.10274288600703e-001 5.15913904486368e+001

! acs =  6 12 5 8 3 5 4
! insert_points = 3
! eps2d = 3e-005 3e-005 eps3d = 0.0001 0.0001
! max_factor = 2.5 extract_factor = 0.2 far_factor=0.5 eps_thin = 0.0001 eps_far = 0.01
! max_pts = 12 max_pts_inc_st = 1 max_pts_inc_nr = 1 rate_pts = 2.5 next_ratio = 1.5 max_images=500000
! auto_fixed_lambda = 0 increase_rate = 0.1 min_lambda = 100 max_lambda = 1e+006
