! 
# GHZ S MA R 50
! Nport = 1
4.00000000000000e+000 7.92031108762630e-001 5.95022772158090e-001
4.08333333333000e+000 7.24406661163405e-001 -9.20421649339099e+000
4.16666666666000e+000 6.20117321166567e-001 -1.99920753365573e+001
4.24999999999000e+000 4.74994506116118e-001 -2.99630826530903e+001
4.33333333332000e+000 3.13874602809716e-001 -3.28913304193622e+001
4.41666666665000e+000 2.12673596511814e-001 -1.70183793354325e+001
4.49999999998000e+000 2.20595530881747e-001 -6.92233812846237e-001
4.58333333331000e+000 2.31421916809021e-001 -1.02033423567332e+001
4.66666666664000e+000 1.56872021504432e-001 -5.25370352001584e+001
4.74999999997000e+000 1.85711628888969e-001 -1.76902121627937e+002
4.83333333330000e+000 4.30251831902815e-001 1.26157250671541e+002
4.91666666663000e+000 5.92987175015487e-001 9.75746014285002e+001
4.99999999996000e+000 6.79299050342464e-001 8.01118393488468e+001
5.08333333329000e+000 7.28100747378968e-001 6.83729531736996e+001
5.16666666662000e+000 7.58803861557748e-001 5.98055892275264e+001
5.24999999995000e+000 7.79879620913303e-001 5.31416839811991e+001
5.33333333328000e+000 7.95283862707236e-001 4.77056073355677e+001
5.41666666661000e+000 8.07053115857721e-001 4.31098759523503e+001
5.49999999994000e+000 8.16333732735085e-001 3.91172673612971e+001
5.58333333327000e+000 8.23820420314672e-001 3.55743332118265e+001
5.66666666660000e+000 8.29959776493739e-001 3.23771548988913e+001
5.74999999993000e+000 8.35052627826966e-001 2.94526039402294e+001
5.83333333326000e+000 8.39309230867788e-001 2.67475261644759e+001
5.91666666659000e+000 8.42880900547659e-001 2.42222042650038e+001
5.99999999992000e+000 8.45879091471045e-001 2.18462451239287e+001

! acs =  6 12 5 8 3 5 4
! insert_points = 3
! eps2d = 3e-005 3e-005 eps3d = 0.0001 0.0001
! max_factor = 2.5 extract_factor = 0.2 far_factor=0.5 eps_thin = 0.0001 eps_far = 0.01
! max_pts = 12 max_pts_inc_st = 1 max_pts_inc_nr = 1 rate_pts = 2.5 next_ratio = 1.5 max_images=500000
! auto_fixed_lambda = 0 increase_rate = 0.1 min_lambda = 100 max_lambda = 1e+006
