! 
# GHZ S MA R 50
! Nport = 1
4.00000000000000e+000 8.49650125537886e-001 1.27667389687743e+001
4.08333333333000e+000 8.10821832678957e-001 2.06474118418437e+000
4.16666666666000e+000 7.49090470683190e-001 -1.07809930337859e+001
4.24999999999000e+000 6.53230198618995e-001 -2.63873036014631e+001
4.33333333332000e+000 5.14517070799294e-001 -4.51912435258568e+001
4.41666666665000e+000 3.39875925094652e-001 -6.70969610492063e+001
4.49999999998000e+000 1.62136324734248e-001 -9.12801333276810e+001
4.58333333331000e+000 2.87854937606116e-002 -1.03247453618461e+002
4.66666666664000e+000 4.65690865743654e-002 -3.15713012640934e+001
4.74999999997000e+000 1.54849634749068e-001 -1.15673975191739e+002
4.83333333330000e+000 3.95237286972148e-001 -1.74462809371771e+002
4.91666666663000e+000 5.92888809913917e-001 1.45006460277676e+002
4.99999999996000e+000 6.90592857500825e-001 1.19102656010228e+002
5.08333333329000e+000 7.39045614102216e-001 1.02166312454638e+002
5.16666666662000e+000 7.67371177098234e-001 9.02080027363401e+001
5.24999999995000e+000 7.86356764443273e-001 8.11558416926290e+001
5.33333333328000e+000 8.00237992358701e-001 7.39308985740834e+001
5.41666666661000e+000 8.10942677170758e-001 6.79321141221055e+001
5.49999999994000e+000 8.19481535839125e-001 6.28002850082375e+001
5.58333333327000e+000 8.26447739194297e-001 5.83073362176377e+001
5.66666666660000e+000 8.32219755623256e-001 5.43009998751905e+001
5.74999999993000e+000 8.37054065321181e-001 5.06753202296505e+001
5.83333333326000e+000 8.41132190285193e-001 4.73539812771221e+001
5.91666666659000e+000 8.44586727119169e-001 4.42803930074241e+001
5.99999999992000e+000 8.47516817657125e-001 4.14115346798304e+001

! acs =  6 12 5 8 3 5 4
! insert_points = 3
! eps2d = 3e-005 3e-005 eps3d = 0.0001 0.0001
! max_factor = 2.5 extract_factor = 0.2 far_factor=0.5 eps_thin = 0.0001 eps_far = 0.01
! max_pts = 12 max_pts_inc_st = 1 max_pts_inc_nr = 1 rate_pts = 2.5 next_ratio = 1.5 max_images=500000
! auto_fixed_lambda = 0 increase_rate = 0.1 min_lambda = 100 max_lambda = 1e+006
