! 
# GHZ S MA R 50
! Nport = 1
4.00000000000000e+000 8.55814781853837e-001 2.40439293155224e+001
4.08333333333000e+000 8.32277440192349e-001 1.72269277411535e+001
4.16666666666000e+000 7.92983323103059e-001 9.43715398113258e+000
4.24999999999000e+000 7.27425186948879e-001 4.98491352683835e-001
4.33333333332000e+000 6.21857492232996e-001 -9.22742736619010e+000
4.41666666665000e+000 4.70217337445019e-001 -1.73303739903261e+001
4.49999999998000e+000 3.04912178523820e-001 -1.53077937120423e+001
4.58333333331000e+000 2.26077169466995e-001 9.29302477537422e+000
4.66666666664000e+000 2.67413685052403e-001 2.82902185291300e+001
4.74999999997000e+000 3.08621171003324e-001 2.85557262088491e+001
4.83333333330000e+000 2.81052581889146e-001 2.26816598278087e+001
4.91666666663000e+000 1.61075841572577e-001 3.29984464634339e+001
4.99999999996000e+000 2.52651580940641e-001 9.56791558784421e+001
5.08333333329000e+000 5.09698513389843e-001 8.68801785322309e+001
5.16666666662000e+000 6.59503388764959e-001 7.20555509417145e+001
5.24999999995000e+000 7.33015324806016e-001 6.10937674167484e+001
5.33333333328000e+000 7.72056570098629e-001 5.31309215520527e+001
5.41666666661000e+000 7.95402340573620e-001 4.70371399510466e+001
5.49999999994000e+000 8.10831487150118e-001 4.21271377769416e+001
5.58333333327000e+000 8.21816844507076e-001 3.80052931923344e+001
5.66666666660000e+000 8.30068212873982e-001 3.44349160709027e+001
5.74999999993000e+000 8.36507279986298e-001 3.12672631591147e+001
5.83333333326000e+000 8.41670811780777e-001 2.84043504247572e+001
5.91666666659000e+000 8.45892028990883e-001 2.57788861178082e+001
5.99999999992000e+000 8.49388852330261e-001 2.33429626621214e+001

! acs =  6 12 5 8 3 5 4
! insert_points = 3
! eps2d = 3e-005 3e-005 eps3d = 0.0001 0.0001
! max_factor = 2.5 extract_factor = 0.2 far_factor=0.5 eps_thin = 0.0001 eps_far = 0.01
! max_pts = 12 max_pts_inc_st = 1 max_pts_inc_nr = 1 rate_pts = 2.5 next_ratio = 1.5 max_images=500000
! auto_fixed_lambda = 0 increase_rate = 0.1 min_lambda = 100 max_lambda = 1e+006
