! 
# GHZ S MA R 50
! Nport = 1
4.00000000000000e+000 8.55713000757829e-001 2.40331293260918e+001
4.08333333333000e+000 8.32082432084745e-001 1.72182681988656e+001
4.16666666666000e+000 7.92629758095128e-001 9.43303127261497e+000
4.24999999999000e+000 7.26817109843133e-001 5.07161706026010e-001
4.33333333332000e+000 6.20927931047416e-001 -9.17907040528167e+000
4.41666666665000e+000 4.69205167688773e-001 -1.71620401110492e+001
4.49999999998000e+000 3.04960939626296e-001 -1.48563976822766e+001
4.58333333331000e+000 2.28625259815598e-001 9.65511372564311e+000
4.66666666664000e+000 2.70433544469671e-001 2.80384064208160e+001
4.74999999997000e+000 3.10776073043782e-001 2.80502038751535e+001
4.83333333330000e+000 2.81831066162517e-001 2.19452545321967e+001
4.91666666663000e+000 1.58894821578673e-001 3.19558153355630e+001
4.99999999996000e+000 2.51015016642287e-001 9.61669447299204e+001
5.08333333329000e+000 5.09156011888304e-001 8.70431458930605e+001
5.16666666662000e+000 6.59074880141628e-001 7.21352567171167e+001
5.24999999995000e+000 7.32677029570587e-001 6.11460397935181e+001
5.33333333328000e+000 7.71806896891440e-001 5.31693916203608e+001
5.41666666661000e+000 7.95222525820028e-001 4.70669818791376e+001
5.49999999994000e+000 8.10703058391435e-001 4.21510723217801e+001
5.58333333327000e+000 8.21725840975436e-001 3.80249999024260e+001
5.66666666660000e+000 8.30004775911690e-001 3.44515156594954e+001
5.74999999993000e+000 8.36464533070844e-001 3.12815382212766e+001
5.83333333326000e+000 8.41643925709330e-001 2.84168654242691e+001
5.91666666659000e+000 8.45877566452888e-001 2.57900590870979e+001
5.99999999992000e+000 8.49384329572899e-001 2.33531105438026e+001

! acs =  6 12 5 8 3 5 4
! insert_points = 3
! eps2d = 3e-005 3e-005 eps3d = 0.0001 0.0001
! max_factor = 2.5 extract_factor = 0.2 far_factor=0.5 eps_thin = 0.0001 eps_far = 0.01
! max_pts = 12 max_pts_inc_st = 1 max_pts_inc_nr = 1 rate_pts = 2.5 next_ratio = 1.5 max_images=500000
! auto_fixed_lambda = 0 increase_rate = 0.1 min_lambda = 100 max_lambda = 1e+006
