! 
# GHZ S MA R 50
! Nport = 1
4.00000000000000e+000 8.71876068076796e-001 1.23817077639980e+001
4.08333333333000e+000 8.53464344738098e-001 5.39712223721488e+000
4.16666666666000e+000 8.25131615436052e-001 -2.43121143232621e+000
4.24999999999000e+000 7.81832251454497e-001 -1.13248496666209e+001
4.33333333332000e+000 7.16901819222128e-001 -2.14458706842345e+001
4.41666666665000e+000 6.23876941743671e-001 -3.26900580827521e+001
4.49999999998000e+000 5.02326359954898e-001 -4.42486010259615e+001
4.58333333331000e+000 3.67356804290454e-001 -5.39766847079106e+001
4.66666666664000e+000 2.53439196401427e-001 -5.89288593869742e+001
4.74999999997000e+000 1.91988258034242e-001 -6.44778954552662e+001
4.83333333330000e+000 1.73599487111423e-001 -9.68598641621958e+001
4.91666666663000e+000 2.40190850807004e-001 -1.63588733097519e+002
4.99999999996000e+000 4.03342286511512e-001 1.43963147392003e+002
5.08333333329000e+000 5.38791431978032e-001 1.11665516535382e+002
5.16666666662000e+000 6.22228626119898e-001 9.12524015602105e+001
5.24999999995000e+000 6.74383366943432e-001 7.74621995814569e+001
5.33333333328000e+000 7.09694670345720e-001 6.74476244720043e+001
5.41666666661000e+000 7.35298671403584e-001 5.97244300738020e+001
5.49999999994000e+000 7.54796719460580e-001 5.34859820494067e+001
5.58333333327000e+000 7.70167135109117e-001 4.82655065249727e+001
5.66666666660000e+000 7.82591062007162e-001 4.37759570173746e+001
5.74999999993000e+000 7.92823248546205e-001 3.98312091264392e+001
5.83333333326000e+000 8.01372010012001e-001 3.63050584370788e+001
5.91666666659000e+000 8.08593804027628e-001 3.31086566819363e+001
5.99999999992000e+000 8.14746559323848e-001 3.01774424136970e+001

! acs =  6 12 5 8 3 5 4
! insert_points = 3
! eps2d = 3e-005 3e-005 eps3d = 0.0001 0.0001
! max_factor = 2.5 extract_factor = 0.2 far_factor=0.5 eps_thin = 0.0001 eps_far = 0.01
! max_pts = 12 max_pts_inc_st = 1 max_pts_inc_nr = 1 rate_pts = 2.5 next_ratio = 1.5 max_images=500000
! auto_fixed_lambda = 0 increase_rate = 0.1 min_lambda = 100 max_lambda = 1e+006
