! 
# GHZ S MA R 50
! Nport = 1
4.00000000000000e+000 8.72714330566887e-001 1.13338223724968e+001
4.08333333333000e+000 8.54071025918910e-001 4.18123916781464e+000
4.16666666666000e+000 8.25318827192650e-001 -3.86976642917615e+000
4.24999999999000e+000 7.81330185428670e-001 -1.30639962287325e+001
4.33333333332000e+000 7.15394789255027e-001 -2.36004674360726e+001
4.41666666665000e+000 6.21160135432181e-001 -3.54429711117007e+001
4.49999999998000e+000 4.98548081513834e-001 -4.79393514556876e+001
4.58333333331000e+000 3.62818834734144e-001 -5.93612334718986e+001
4.66666666664000e+000 2.47197242759426e-001 -6.77394899931594e+001
4.74999999997000e+000 1.83074158115644e-001 -7.97819073145757e+001
4.83333333330000e+000 1.80795464075900e-001 -1.21058412130559e+002
4.91666666663000e+000 2.90071751940736e-001 1.78077607900142e+002
4.99999999996000e+000 4.54148181941916e-001 1.33944307745448e+002
5.08333333329000e+000 5.71390735875995e-001 1.05822850776710e+002
5.16666666662000e+000 6.42094258399855e-001 8.76123469210508e+001
5.24999999995000e+000 6.87221313275325e-001 7.50291481771789e+001
5.33333333328000e+000 7.18569325072426e-001 6.57172492936243e+001
5.41666666661000e+000 7.41784757314480e-001 5.84300636599297e+001
5.49999999994000e+000 7.59748482794213e-001 5.24777100886981e+001
5.58333333327000e+000 7.74079809984993e-001 4.74538647099398e+001
5.66666666660000e+000 7.85769450149936e-001 4.31046877930626e+001
5.74999999993000e+000 7.95464618287467e-001 3.92633283251505e+001
5.83333333326000e+000 8.03609463649128e-001 3.58153216302973e+001
5.91666666659000e+000 8.10520314733212e-001 3.26792740367854e+001
5.99999999992000e+000 8.16428988345438e-001 2.97955297984925e+001

! acs =  6 12 5 8 3 5 4
! insert_points = 3
! eps2d = 3e-005 3e-005 eps3d = 0.0001 0.0001
! max_factor = 2.5 extract_factor = 0.2 far_factor=0.5 eps_thin = 0.0001 eps_far = 0.01
! max_pts = 12 max_pts_inc_st = 1 max_pts_inc_nr = 1 rate_pts = 2.5 next_ratio = 1.5 max_images=500000
! auto_fixed_lambda = 0 increase_rate = 0.1 min_lambda = 100 max_lambda = 1e+006
