! 
# GHZ S MA R 50
! Nport = 1
4.00000000000000e+000 8.61083277047951e-001 2.07522513065091e+001
4.08333333333000e+000 8.42957719002063e-001 1.46915653640290e+001
4.16666666666000e+000 8.15292265503884e-001 8.04340663699760e+000
4.24999999999000e+000 7.73033025808404e-001 6.86877787848221e-001
4.33333333332000e+000 7.09181854415099e-001 -7.36647570714369e+000
4.41666666665000e+000 6.16377635530743e-001 -1.56464842263907e+001
4.49999999998000e+000 4.93562917150210e-001 -2.24003779686885e+001
4.58333333331000e+000 3.60603390668284e-001 -2.29319565584637e+001
4.66666666664000e+000 2.72605443022847e-001 -1.03471719556420e+001
4.74999999997000e+000 2.76408212759704e-001 6.07879396009393e+000
4.83333333330000e+000 3.20825431962788e-001 8.72061912210430e+000
4.91666666663000e+000 3.37825500610240e-001 -7.23761405739357e-001
4.99999999996000e+000 2.84043910522516e-001 -2.10623671596378e+001
5.08333333329000e+000 1.31703285524775e-001 -6.95024433501728e+001
5.16666666662000e+000 1.92209298941589e-001 1.49784115341110e+002
5.24999999995000e+000 4.21813878601043e-001 1.08373514841105e+002
5.33333333328000e+000 5.69429171302267e-001 8.61340631404900e+001
5.41666666661000e+000 6.53995440610726e-001 7.16961759771692e+001
5.49999999994000e+000 7.04829444816425e-001 6.15420058890700e+001
5.58333333327000e+000 7.37868409706350e-001 5.39100507515489e+001
5.66666666660000e+000 7.60882451890870e-001 4.78607917122967e+001
5.74999999993000e+000 7.77803890894013e-001 4.28643359498699e+001
5.83333333326000e+000 7.90762459477321e-001 3.86039171551316e+001
5.91666666659000e+000 8.00992637455255e-001 3.48797502360410e+001
5.99999999992000e+000 8.09254196748355e-001 3.15597906298484e+001

! acs =  6 12 5 8 3 5 4
! insert_points = 3
! eps2d = 3e-005 3e-005 eps3d = 0.0001 0.0001
! max_factor = 2.5 extract_factor = 0.2 far_factor=0.5 eps_thin = 0.0001 eps_far = 0.01
! max_pts = 12 max_pts_inc_st = 1 max_pts_inc_nr = 1 rate_pts = 2.5 next_ratio = 1.5 max_images=500000
! auto_fixed_lambda = 0 increase_rate = 0.1 min_lambda = 100 max_lambda = 1e+006
