! 
# GHZ S MA R 50
! Nport = 1
4.00000000000000e+000 8.78808471914861e-001 3.63693739294261e+001
4.08333333333000e+000 8.63763016503684e-001 2.87718812032609e+001
4.16666666666000e+000 8.39160645663519e-001 2.00046298097515e+001
4.24999999999000e+000 7.98069727547654e-001 9.54561303908986e+000
4.33333333332000e+000 7.28786965649305e-001 -3.31667867475726e+000
4.41666666665000e+000 6.14592057437538e-001 -1.94117516523269e+001
4.49999999998000e+000 4.42283612060403e-001 -3.94246185118172e+001
4.58333333331000e+000 2.25841220431897e-001 -6.46820802656330e+001
4.66666666664000e+000 3.74400108264586e-002 -1.51285221052875e+002
4.74999999997000e+000 1.53751546417878e-001 9.89222895704009e+001
4.83333333330000e+000 2.33224104110797e-001 7.76137557870658e+001
4.91666666663000e+000 2.21095632778373e-001 6.46653902977701e+001
4.99999999996000e+000 1.36913131611043e-001 8.97898609627623e+001
5.08333333329000e+000 3.38633756954197e-001 1.26641998143036e+002
5.16666666662000e+000 5.89798168372530e-001 1.07827553780875e+002
5.24999999995000e+000 7.12529935332749e-001 9.04311877860907e+001
5.33333333328000e+000 7.66945704442049e-001 7.82966296723004e+001
5.41666666661000e+000 7.94675544192378e-001 6.95099046068714e+001
5.49999999994000e+000 8.11180754407406e-001 6.27213371432485e+001
5.58333333327000e+000 8.22242967764285e-001 5.71908334992184e+001
5.66666666660000e+000 8.30289747970906e-001 5.25036596256970e+001
5.74999999993000e+000 8.36473918853674e-001 4.84131315219540e+001
5.83333333326000e+000 8.41405846230387e-001 4.47635803048936e+001
5.91666666659000e+000 8.45439340087532e-001 4.14515863091188e+001
5.99999999992000e+000 8.48795078191383e-001 3.84053976544271e+001

! acs =  6 12 5 8 3 5 4
! insert_points = 3
! eps2d = 3e-005 3e-005 eps3d = 0.0001 0.0001
! max_factor = 2.5 extract_factor = 0.2 far_factor=0.5 eps_thin = 0.0001 eps_far = 0.01
! max_pts = 12 max_pts_inc_st = 1 max_pts_inc_nr = 1 rate_pts = 2.5 next_ratio = 1.5 max_images=500000
! auto_fixed_lambda = 0 increase_rate = 0.1 min_lambda = 100 max_lambda = 1e+006
