! 
# GHZ S MA R 50
! Nport = 1
4.00000000000000e+000 8.94370581901641e-001 2.31549236424664e+001
4.08333333333000e+000 8.83653524479723e-001 1.56523162753945e+001
4.16666666666000e+000 8.67502910062849e-001 7.34314331305138e+000
4.24999999999000e+000 8.43171525561629e-001 -2.03465943455114e+000
4.33333333332000e+000 8.06651140156746e-001 -1.28065676624099e+001
4.41666666665000e+000 7.52567224184261e-001 -2.53472836322740e+001
4.49999999998000e+000 6.75057180181531e-001 -4.00163128497140e+001
4.58333333331000e+000 5.70943105298325e-001 -5.70002854093242e+001
4.66666666664000e+000 4.45672094471363e-001 -7.60062546598566e+001
4.74999999997000e+000 3.18789215472310e-001 -9.55485141528913e+001
4.83333333330000e+000 2.26157337051873e-001 -1.11145700788468e+002
4.91666666663000e+000 2.25969798301283e-001 -1.21725423457682e+002
4.99999999996000e+000 3.51677193049927e-001 -1.47819877951053e+002
5.08333333329000e+000 5.14739222887635e-001 1.74377786832149e+002
5.16666666662000e+000 6.17169387167300e-001 1.42528112436294e+002
5.24999999995000e+000 6.70813102601515e-001 1.20030887106827e+002
5.33333333328000e+000 7.03591863617656e-001 1.04027114598897e+002
5.41666666661000e+000 7.27056527256403e-001 9.20510750546649e+001
5.49999999994000e+000 7.45345457119204e-001 8.26442838865113e+001
5.58333333327000e+000 7.60202015957826e-001 7.49621748476039e+001
5.66666666660000e+000 7.72541943369819e-001 6.84942380872257e+001
5.74999999993000e+000 7.82937055286491e-001 6.29158027168050e+001
5.83333333326000e+000 7.91783948233539e-001 5.80106250767251e+001
5.91666666659000e+000 7.99374067022602e-001 5.36288705750294e+001
5.99999999992000e+000 8.05928639627734e-001 4.96631909685021e+001

! acs =  6 12 5 8 3 5 4
! insert_points = 3
! eps2d = 3e-005 3e-005 eps3d = 0.0001 0.0001
! max_factor = 2.5 extract_factor = 0.2 far_factor=0.5 eps_thin = 0.0001 eps_far = 0.01
! max_pts = 12 max_pts_inc_st = 1 max_pts_inc_nr = 1 rate_pts = 2.5 next_ratio = 1.5 max_images=500000
! auto_fixed_lambda = 0 increase_rate = 0.1 min_lambda = 100 max_lambda = 1e+006
