! 
# GHZ S MA R 50
! Nport = 1
4.00000000000000e-001 9.45727357643624e-001 7.71967285598326e+001
4.86956521740000e-001 9.63226778823157e-001 3.93714503566579e+001
5.73913043480000e-001 9.75646450593911e-001 1.12810478654998e+001
6.60869565220000e-001 9.70360531034460e-001 -2.40716043355395e+001
7.47826086960000e-001 5.17460844096683e-001 -1.37123728730978e+002
8.34782608700000e-001 7.15856936654247e-002 1.20367780335132e+001
9.21739130440000e-001 5.16140717128025e-001 8.16287034596165e+001
1.00869565218000e+000 7.33755195716169e-001 5.08179323006375e+001
1.09565217392000e+000 8.08240467878691e-001 3.43616507379007e+001
1.18260869566000e+000 8.40196402362677e-001 2.35196984770360e+001
1.26956521740000e+000 8.54441071766316e-001 1.52992278045979e+001
1.35652173914000e+000 8.57995754749241e-001 8.41748775001518e+000
1.44347826088000e+000 8.48055242417388e-001 2.14048276303064e+000
1.53043478262000e+000 8.11728124365596e-001 -3.10294675313875e+000
1.61739130436000e+000 7.61969075554356e-001 -4.58977191140192e+000
1.70434782610000e+000 7.72000771808966e-001 -3.40560792124048e+000
1.79130434784000e+000 8.14191348576885e-001 -5.50983260757687e+000
1.87826086958000e+000 8.39413727928302e-001 -9.30678297296484e+000
1.96521739132000e+000 8.49123434377490e-001 -1.32472378343517e+001
2.05217391306000e+000 8.49194016089364e-001 -1.69623396336290e+001
2.13913043480000e+000 8.44591275396535e-001 -2.04228950751258e+001
2.22608695654000e+000 8.34335500988334e-001 -2.38636096274613e+001
2.31304347828000e+000 8.14352638431533e-001 -2.69454709495745e+001
2.40000000002000e+000 7.89081722326879e-001 -2.91223228068449e+001

! acs =  6 12 5 8 3 5 4
! insert_points = 3
! eps2d = 3e-005 3e-005 eps3d = 0.0001 0.0001
! max_factor = 2.5 extract_factor = 0.2 far_factor=0.5 eps_thin = 0.0001 eps_far = 0.01
! max_pts = 12 max_pts_inc_st = 1 max_pts_inc_nr = 1 rate_pts = 2.5 next_ratio = 1.5 max_images=500000
! auto_fixed_lambda = 0 increase_rate = 0.1 min_lambda = 100 max_lambda = 1e+006
