! 
# GHZ S MA R 50
! Nport = 1
4.00000000000000e-001 9.48087890430015e-001 7.52627665211311e+001
4.86956521740000e-001 9.66479565688516e-001 3.75187134946950e+001
5.73913043480000e-001 9.79193823293959e-001 1.00461065355484e+001
6.60869565220000e-001 9.75476846284695e-001 -2.32989865932355e+001
7.47826086960000e-001 6.01004572595666e-001 -1.19260216216784e+002
8.34782608700000e-001 2.02528147333234e-001 5.98816465140717e-001
9.21739130440000e-001 3.61681579164605e-001 9.69475385631283e+001
1.00869565218000e+000 6.72544152065810e-001 5.88323776064924e+001
1.09565217392000e+000 7.78840111264984e-001 3.94389412460912e+001
1.18260869566000e+000 8.23466337670984e-001 2.73215276865153e+001
1.26956521740000e+000 8.44470932989398e-001 1.84877103470435e+001
1.35652173914000e+000 8.53005028110032e-001 1.13396630738620e+001
1.44347826088000e+000 8.50518156840727e-001 5.01748077420302e+000
1.53043478262000e+000 8.27559015321246e-001 -6.53669673122126e-001
1.61739130436000e+000 7.79976754365473e-001 -3.88538640439742e+000
1.70434782610000e+000 7.64332633484141e-001 -3.02484579955329e+000
1.79130434784000e+000 8.02875546228691e-001 -3.96692878780608e+000
1.87826086958000e+000 8.33452709340268e-001 -7.38595181279953e+000
1.96521739132000e+000 8.47018498036611e-001 -1.12020032051640e+001
2.05217391306000e+000 8.51045331823703e-001 -1.47779322106597e+001
2.13913043480000e+000 8.53101981439670e-001 -1.81902621105118e+001
2.22608695654000e+000 8.49824222600332e-001 -2.18884958677413e+001
2.31304347828000e+000 8.34248742843479e-001 -2.54615370647295e+001
2.40000000002000e+000 8.09447169241902e-001 -2.83259871460932e+001

! acs =  6 12 5 8 3 5 4
! insert_points = 3
! eps2d = 3e-005 3e-005 eps3d = 0.0001 0.0001
! max_factor = 2.5 extract_factor = 0.2 far_factor=0.5 eps_thin = 0.0001 eps_far = 0.01
! max_pts = 12 max_pts_inc_st = 1 max_pts_inc_nr = 1 rate_pts = 2.5 next_ratio = 1.5 max_images=500000
! auto_fixed_lambda = 0 increase_rate = 0.1 min_lambda = 100 max_lambda = 1e+006
