! 
# GHZ S MA R 50
! Nport = 1
4.00000000000000e-001 9.49964830814590e-001 7.32954337001490e+001
4.86956521740000e-001 9.68158566028641e-001 3.61201419430771e+001
5.73913043480000e-001 9.80571410920670e-001 8.93426792146133e+000
6.60869565220000e-001 9.76178694689248e-001 -2.42141939665490e+001
7.47826086960000e-001 5.92752770692282e-001 -1.19299400012494e+002
8.34782608700000e-001 2.05600865290047e-001 -4.21497661663989e+000
9.21739130440000e-001 3.47472129997170e-001 9.98066119982566e+001
1.00869565218000e+000 6.65406379009975e-001 5.98859551633981e+001
1.09565217392000e+000 7.75279356872052e-001 3.99809638590340e+001
1.18260869566000e+000 8.21434087557298e-001 2.76362090897844e+001
1.26956521740000e+000 8.43205168790247e-001 1.86811460263154e+001
1.35652173914000e+000 8.52235579227853e-001 1.14612083038245e+001
1.44347826088000e+000 8.50219479635430e-001 5.08403250226140e+000
1.53043478262000e+000 8.27630163560690e-001 -6.51619093615346e-001
1.61739130436000e+000 7.79750593433717e-001 -3.97076616335364e+000
1.70434782610000e+000 7.62917489179970e-001 -3.12717148710447e+000
1.79130434784000e+000 8.01012804865245e-001 -4.02636280171829e+000
1.87826086958000e+000 8.31486862316713e-001 -7.43261886775989e+000
1.96521739132000e+000 8.44609082955477e-001 -1.12434329713545e+001
2.05217391306000e+000 8.47932328729010e-001 -1.47559166899924e+001
2.13913043480000e+000 8.50852890029408e-001 -1.80653335672703e+001
2.22608695654000e+000 8.48986008296323e-001 -2.17671137873579e+001
2.31304347828000e+000 8.34085864057220e-001 -2.53774237099218e+001
2.40000000002000e+000 8.09537793403037e-001 -2.82800777627309e+001

! acs =  6 12 5 8 3 5 4
! insert_points = 3
! eps2d = 3e-005 3e-005 eps3d = 0.0001 0.0001
! max_factor = 2.5 extract_factor = 0.2 far_factor=0.5 eps_thin = 0.0001 eps_far = 0.01
! max_pts = 12 max_pts_inc_st = 1 max_pts_inc_nr = 1 rate_pts = 2.5 next_ratio = 1.5 max_images=500000
! auto_fixed_lambda = 0 increase_rate = 0.1 min_lambda = 100 max_lambda = 1e+006
