! 
# GHZ S MA R 50
! Nport = 1
4.00000000000000e-001 9.61036299585399e-001 1.10567221619976e+002
4.86956521740000e-001 9.67194300550061e-001 6.59564192036299e+001
5.73913043480000e-001 9.75841498488991e-001 3.23958423804554e+001
6.60869565220000e-001 9.81221222470273e-001 -1.03404203878475e+000
7.47826086960000e-001 9.54509357946839e-001 -5.18867812139363e+001
8.34782608700000e-001 3.53266788174275e-001 1.74276257347100e+002
9.21739130440000e-001 4.36808297312157e-001 1.77327974749854e+002
1.00869565218000e+000 6.89666896461242e-001 1.05247549672211e+002
1.09565217392000e+000 7.86835765761773e-001 7.24493456925464e+001
1.18260869566000e+000 8.29521873548536e-001 5.33359241657851e+001
1.26956521740000e+000 8.50243497907801e-001 4.00251630673859e+001
1.35652173914000e+000 8.59027525190658e-001 2.95404276752064e+001
1.44347826088000e+000 8.58204667736882e-001 2.03703352262676e+001
1.53043478262000e+000 8.39107208198877e-001 1.13352971544806e+001
1.61739130436000e+000 7.75551268272389e-001 2.48337929108079e+000
1.70434782610000e+000 6.38582641435166e-001 -1.94985967510284e+000
1.79130434784000e+000 5.77172097295519e-001 9.79766365422155e+000
1.87826086958000e+000 6.93133276092091e-001 1.30173913188696e+001
1.96521739132000e+000 7.69546875125656e-001 7.63985653716927e+000
2.05217391306000e+000 7.99966176687792e-001 1.68761335026208e+000
2.13913043480000e+000 8.08923293965806e-001 -3.87611445402398e+000
2.22608695654000e+000 7.99199809999314e-001 -9.60952356151200e+000
2.31304347828000e+000 7.58969392426491e-001 -1.47040977010836e+001
2.40000000002000e+000 7.03858367055387e-001 -1.72057570199878e+001

! acs =  6 12 5 8 3 5 4
! insert_points = 3
! eps2d = 3e-005 3e-005 eps3d = 0.0001 0.0001
! max_factor = 2.5 extract_factor = 0.2 far_factor=0.5 eps_thin = 0.0001 eps_far = 0.01
! max_pts = 12 max_pts_inc_st = 1 max_pts_inc_nr = 1 rate_pts = 2.5 next_ratio = 1.5 max_images=500000
! auto_fixed_lambda = 0 increase_rate = 0.1 min_lambda = 100 max_lambda = 1e+006
