! 
# GHZ S MA R 50
! Nport = 1
5.00000000000000e-001 9.65012892068809e-001 5.77169446480846e+001
5.83333333330000e-001 9.74506956056046e-001 2.80239193956390e+001
6.66666666660000e-001 9.80167602896253e-001 -1.19902648233393e+000
7.49999999990000e-001 9.57849315452748e-001 -4.44005539204412e+001
8.33333333320000e-001 4.28492467264111e-001 -1.61002287727268e+002
9.16666666650000e-001 2.91284936563911e-001 -1.62487457253511e+002
9.99999999980000e-001 6.02680958862266e-001 1.09118453920684e+002
1.08333333331000e+000 7.44189035916985e-001 7.21861407681126e+001
1.16666666664000e+000 8.05229534190990e-001 5.19782430940775e+001
1.24999999997000e+000 8.35097227961656e-001 3.85224972083721e+001
1.33333333330000e+000 8.49932487076129e-001 2.83250111717194e+001
1.41666666663000e+000 8.55102085936616e-001 1.98217992498204e+001
1.49999999996000e+000 8.50072707416894e-001 1.20129542884043e+001
1.58333333329000e+000 8.21467058416400e-001 4.35847268108805e+000
1.66666666662000e+000 7.49636274749493e-001 -2.01342682350384e+000
1.74999999995000e+000 6.49258192693457e-001 -1.51147168308606e+000
1.83333333328000e+000 6.63171545481618e-001 5.47104443970653e+000
1.91666666661000e+000 7.44038422637740e-001 4.62298981676209e+000
1.99999999994000e+000 7.92611455866599e-001 5.62135151709098e-002
2.08333333327000e+000 8.13361080185447e-001 -4.83375489697812e+000
2.16666666660000e+000 8.18368163420791e-001 -9.57917965304873e+000
2.24999999993000e+000 8.07765244485208e-001 -1.42871995964510e+001
2.33333333326000e+000 7.77878588611362e-001 -1.82830420965963e+001
2.41666666659000e+000 7.41350801090423e-001 -2.06804350824112e+001
2.49999999992000e+000 7.10903288555526e-001 -2.19202925549107e+001

! acs =  6 12 5 8 3 5 4
! insert_points = 3
! eps2d = 3e-005 3e-005 eps3d = 0.0001 0.0001
! max_factor = 2.5 extract_factor = 0.2 far_factor=0.5 eps_thin = 0.0001 eps_far = 0.01
! max_pts = 12 max_pts_inc_st = 1 max_pts_inc_nr = 1 rate_pts = 2.5 next_ratio = 1.5 max_images=500000
! auto_fixed_lambda = 0 increase_rate = 0.1 min_lambda = 100 max_lambda = 1e+006
