! Zeland S-Parameters Output Version 2.0  
# GHZ S MA R 50
! Nport = 1
!

 7.0000000000e-001  9.7447005577e-001 -4.6121972186e+000
 7.2500000000e-001  9.7210181551e-001 -1.5219267611e+001
 7.5000000000e-001  9.6582181025e-001 -2.7850063719e+001
 7.7500000000e-001  9.5090056471e-001 -4.3805959410e+001
 8.0000000000e-001  9.1172203182e-001 -6.5557632715e+001
 8.2500000000e-001  7.8723320216e-001 -9.7641492151e+001
 8.5000000000e-001  4.4561040508e-001 -1.3830985874e+002
 8.7500000000e-001  1.8973465998e-001 -1.2902026577e+002
 9.0000000000e-001  2.7852852062e-001 -1.3503231743e+002
 9.2500000000e-001  3.6675145051e-001 -1.7018233955e+002
 9.5000000000e-001  4.5217825383e-001 1.5715102444e+002
 9.7500000000e-001  5.3336410591e-001 1.3155503884e+002
 1.0000000000e+000  6.0250279189e-001 1.1210848213e+002
 1.0250000000e+000  6.5762264127e-001 9.7152781534e+001
 1.0500000000e+000  7.0045104427e-001 8.5374043599e+001
 1.0750000000e+000  7.3360746450e-001 7.5860082116e+001
 1.1000000000e+000  7.5944325558e-001 6.7991915739e+001
 1.1250000000e+000  7.7978192166e-001 6.1346317574e+001
 1.1500000000e+000  7.9596586787e-001 5.5628814053e+001
 1.1750000000e+000  8.0896795895e-001 5.0630302219e+001
 1.2000000000e+000  8.1949363515e-001 4.6199217346e+001
! acs =  6 12 5 8 3 5 4
! insert_points = 3
! eps2d = 3e-005 3e-005 eps3d = 0.0001 0.0001
! max_factor = 2.5 extract_factor = 0.2 far_factor=0.5 eps_thin = 0.0001 eps_far = 0.01
! max_pts = 12 max_pts_inc_st = 1 max_pts_inc_nr = 1 rate_pts = 2.5 next_ratio = 1.5 max_images=500000
! auto_fixed_lambda = 0 increase_rate = 0.1 min_lambda = 100 max_lambda = 1e+006
