! 
# GHZ S MA R 50
! Nport = 1
4.00000000000000e-001 9.53520301354864e-001 9.58104426438574e+001
4.86956521740000e-001 9.67563008013726e-001 5.13781052433334e+001
5.73913043480000e-001 9.79573850683784e-001 2.10668161740846e+001
6.60869565220000e-001 9.85548194606481e-001 -8.18406179083655e+000
7.47826086960000e-001 9.41455438398087e-001 -5.43783174301856e+001
8.34782608700000e-001 2.88988872414547e-001 1.53622457995936e+002
9.21739130440000e-001 1.97092959856420e-001 -7.96421315802649e+001
1.00869565218000e+000 4.26363451577265e-001 1.23534675993683e+002
1.09565217392000e+000 6.59057460753672e-001 7.61909799264483e+001
1.18260869566000e+000 7.57952438492192e-001 5.30365418793214e+001
1.26956521740000e+000 8.04641386041309e-001 3.85376350697058e+001
1.35652173914000e+000 8.28439202262903e-001 2.80163466483240e+001
1.44347826088000e+000 8.39167084244010e-001 1.95599636453356e+001
1.53043478262000e+000 8.38605036709467e-001 1.21186149497145e+001
1.61739130436000e+000 8.16246759048648e-001 5.09304753842355e+000
1.70434782610000e+000 7.50909743589479e-001 8.66397513474623e-002
1.79130434784000e+000 6.99195011759889e-001 2.79650100835184e+000
1.87826086958000e+000 7.60190920356908e-001 4.26534974987859e+000
1.96521739132000e+000 8.12984009115336e-001 3.79673937626112e-001
2.05217391306000e+000 8.36228930357876e-001 -4.16617345910717e+000
2.13913043480000e+000 8.44769028204312e-001 -8.34241451310470e+000
2.22608695654000e+000 8.48262894959362e-001 -1.21755965439563e+001
2.31304347828000e+000 8.47898204318569e-001 -1.61294881825794e+001
2.40000000002000e+000 8.36344888004813e-001 -2.01433197351653e+001

! acs =  6 12 5 8 3 5 4
! insert_points = 3
! eps2d = 3e-005 3e-005 eps3d = 0.0001 0.0001
! max_factor = 2.5 extract_factor = 0.2 far_factor=0.5 eps_thin = 0.0001 eps_far = 0.01
! max_pts = 12 max_pts_inc_st = 1 max_pts_inc_nr = 1 rate_pts = 2.5 next_ratio = 1.5 max_images=500000
! auto_fixed_lambda = 0 increase_rate = 0.1 min_lambda = 100 max_lambda = 1e+006
