! 
# GHZ S MA R 50
! Nport = 1
1.60000000000000e+000 9.03732018043361e-001 1.14795561720408e+002
1.72083333330000e+000 9.00280643853058e-001 1.01772667243140e+002
1.84166666660000e+000 8.97910124020888e-001 9.04974919648954e+001
1.96249999990000e+000 8.96007330087717e-001 8.06496198678488e+001
2.08333333320000e+000 8.94071231624768e-001 7.19430535820377e+001
2.20416666650000e+000 8.91644603202249e-001 6.41328189680288e+001
2.32499999980000e+000 8.88230093140745e-001 5.70102980809648e+001
2.44583333310000e+000 8.83185133982554e-001 5.03945471301044e+001
2.56666666640000e+000 8.75571095642189e-001 4.41231127855716e+001
2.68749999970000e+000 8.63911701594246e-001 3.80448879248893e+001
2.80833333300000e+000 8.45790222355584e-001 3.20201486582833e+001
2.92916666630000e+000 8.17211503018021e-001 2.59438079839503e+001
3.04999999960000e+000 7.71845775537903e-001 1.98429088608651e+001
3.17083333290000e+000 7.01381806537441e-001 1.41981038708859e+001
3.29166666620000e+000 6.02082103356720e-001 1.08095627701881e+001
3.41249999950000e+000 4.97233457371980e-001 1.39049839407400e+001
3.53333333280000e+000 4.54199185732053e-001 2.55120035589121e+001
3.65416666610000e+000 5.01874320456437e-001 3.55056409172535e+001
3.77499999940000e+000 5.82422799587028e-001 3.80533924151335e+001
3.89583333270000e+000 6.53399053139749e-001 3.64875380607785e+001
4.01666666600000e+000 7.06580090703482e-001 3.35211290080351e+001
4.13749999930000e+000 7.44937401200651e-001 3.02416047543815e+001
4.25833333260000e+000 7.72648017813974e-001 2.70163803258171e+001
4.37916666590000e+000 7.92921224111733e-001 2.39508616464190e+001
4.49999999920000e+000 8.07920611258446e-001 2.10591250021395e+001

! acs =  6 12 5 8 3 5 4
! insert_points = 3
! eps2d = 3e-005 3e-005 eps3d = 0.0001 0.0001
! max_factor = 2.5 extract_factor = 0.2 far_factor=0.5 eps_thin = 0.0001 eps_far = 0.01
! max_pts = 12 max_pts_inc_st = 1 max_pts_inc_nr = 1 rate_pts = 2.5 next_ratio = 1.5 max_images=500000
! auto_fixed_lambda = 0 increase_rate = 0.1 min_lambda = 100 max_lambda = 1e+006
