! 
# GHZ S MA R 50
! Nport = 1
8.00000000000000e-001 9.42753399633353e-001 8.88965833217821e+001
9.15000000000000e-001 9.45806851023234e-001 6.46466980036711e+001
1.03000000000000e+000 9.49528127690630e-001 4.38660434635615e+001
1.14500000000000e+000 9.49225498091866e-001 2.39486945779381e+001
1.26000000000000e+000 9.31261556848162e-001 1.74736549179493e+000
1.37500000000000e+000 8.44471487860927e-001 -2.81130214925972e+001
1.49000000000000e+000 5.42291577980882e-001 -7.44730106861481e+001
1.60500000000000e+000 8.18889326910968e-002 -1.69925847559733e+002
1.72000000000000e+000 1.60496602537473e-001 1.44027220364355e+001
1.83500000000000e+000 2.12152969888999e-001 1.74077325033304e+002
1.95000000000000e+000 5.95967478953539e-001 9.62145863827988e+001
2.06500000000000e+000 7.22053863419285e-001 6.47669961782579e+001
2.18000000000000e+000 7.72320311943261e-001 4.73652988889956e+001
2.29500000000000e+000 7.99189781501789e-001 3.54572968720570e+001
2.41000000000000e+000 8.13603962784813e-001 2.61536184307052e+001
2.52500000000000e+000 8.13059869636030e-001 1.84274280499234e+001
2.64000000000000e+000 8.01603993234249e-001 1.30830506635987e+001
2.75500000000000e+000 8.10427493680172e-001 9.06584182786988e+000
2.87000000000000e+000 8.24225434230010e-001 4.64418806293338e+000
2.98500000000000e+000 8.33849978039303e-001 2.53542628098249e-001

! acs =  6 12 5 8 3 5 4
! insert_points = 3
! eps2d = 3e-005 3e-005 eps3d = 0.0001 0.0001
! max_factor = 2.5 extract_factor = 0.2 far_factor=0.5 eps_thin = 0.0001 eps_far = 0.01
! max_pts = 12 max_pts_inc_st = 1 max_pts_inc_nr = 1 rate_pts = 2.5 next_ratio = 1.5 max_images=500000
! auto_fixed_lambda = 0 increase_rate = 0.1 min_lambda = 100 max_lambda = 1e+006
