! 
# GHZ S MA R 50
! Nport = 1
8.00000000000000e-001 9.63769807239738e-001 1.03187804142505e+002
9.15000000000000e-001 9.62333281303185e-001 7.91012021438432e+001
1.03000000000000e+000 9.62097698513536e-001 5.65406358466361e+001
1.14500000000000e+000 9.59416102864918e-001 3.35910478562951e+001
1.26000000000000e+000 9.43103736777018e-001 7.39477058748707e+000
1.37500000000000e+000 8.74429493511002e-001 -2.72770758478735e+001
1.49000000000000e+000 6.46442938629777e-001 -8.00932121084066e+001
1.60500000000000e+000 2.60409533506258e-001 -1.70988986629404e+002
1.72000000000000e+000 2.14816471627653e-001 2.47232918581081e+001
1.83500000000000e+000 4.15286371518107e-001 -1.11117810571508e+002
1.95000000000000e+000 6.45643725277525e-001 1.55854216539126e+002
2.06500000000000e+000 7.36686031079584e-001 1.09592990471425e+002
2.18000000000000e+000 7.76093799218821e-001 8.34182147972031e+001
2.29500000000000e+000 7.98178712528332e-001 6.57553277219264e+001
2.41000000000000e+000 8.09101000872014e-001 5.21514227950539e+001
2.52500000000000e+000 7.96592385616652e-001 4.07762945080447e+001
2.64000000000000e+000 7.65024514333904e-001 3.46481955811312e+001
2.75500000000000e+000 7.93480977730168e-001 2.94953078354828e+001
2.87000000000000e+000 8.14574440727517e-001 2.29641544724136e+001
2.98500000000000e+000 8.25445408378663e-001 1.67874477093771e+001
3.10000000000000e+000 8.31282151966276e-001 1.10966770759496e+001

! acs =  6 12 5 8 3 5 4
! insert_points = 3
! eps2d = 3e-005 3e-005 eps3d = 0.0001 0.0001
! max_factor = 2.5 extract_factor = 0.2 far_factor=0.5 eps_thin = 0.0001 eps_far = 0.01
! max_pts = 12 max_pts_inc_st = 1 max_pts_inc_nr = 1 rate_pts = 2.5 next_ratio = 1.5 max_images=500000
! auto_fixed_lambda = 0 increase_rate = 0.1 min_lambda = 100 max_lambda = 1e+006
