! Zeland S-Parameters Output Version 2.0  
# GHZ S MA R 50
! Nport = 1
!

 1.3000000000e+000  9.1751885702e-001 -1.4017497558e+001
 1.3400000000e+000  8.8893252261e-001 -2.6713005544e+001
 1.3800000000e+000  8.4402229942e-001 -4.1431596245e+001
 1.4200000000e+000  7.7703915613e-001 -5.8673463712e+001
 1.4600000000e+000  6.8463913070e-001 -7.8911483321e+001
 1.5000000000e+000  5.7096584122e-001 -1.0254700543e+002
 1.5400000000e+000  4.5086533695e-001 -1.2995632167e+002
 1.5800000000e+000  3.4479155182e-001 -1.6133395965e+002
 1.6200000000e+000  2.6491795046e-001 1.6450207287e+002
 1.6600000000e+000  2.0150982537e-001 1.3149445236e+002
 1.7000000000e+000  1.2512100228e-001 1.0742107944e+002
 1.7400000000e+000  6.0982340573e-002 1.6056897808e+002
 1.7800000000e+000  2.2940364816e-001 1.7995307554e+002
 1.8200000000e+000  4.2953287944e-001 1.5537361693e+002
 1.8600000000e+000  5.7258111356e-001 1.3177715672e+002
 1.9000000000e+000  6.5644581972e-001 1.1327547361e+002
 1.9400000000e+000  7.0513963442e-001 9.9132090087e+001
 1.9800000000e+000  7.3558466378e-001 8.8060825343e+001
 2.0200000000e+000  7.5635816260e-001 7.9104333576e+001
 2.0600000000e+000  7.7161629058e-001 7.1635934468e+001
 2.1000000000e+000  7.8345420284e-001 6.5248693809e+001
! acs =  6 12 5 8 3 5 4
! insert_points = 3
! eps2d = 3e-005 3e-005 eps3d = 0.0001 0.0001
! max_factor = 2.5 extract_factor = 0.2 far_factor=0.5 eps_thin = 0.0001 eps_far = 0.01
! max_pts = 12 max_pts_inc_st = 1 max_pts_inc_nr = 1 rate_pts = 2.5 next_ratio = 1.5 max_images=500000
! auto_fixed_lambda = 0 increase_rate = 0.1 min_lambda = 100 max_lambda = 1e+006
