! 
# GHZ S MA R 50
! Nport = 1
1.20000000000000e+000 9.63071811688367e-001 6.01976078534658e+001
1.30000000000000e+000 9.65314648207226e-001 4.91335492157593e+001
1.40000000000000e+000 9.67140150993711e-001 3.88931312045397e+001
1.50000000000000e+000 9.67748951812017e-001 2.88559056642974e+001
1.60000000000000e+000 9.65256978938820e-001 1.83123376298604e+001
1.70000000000000e+000 9.54713666497515e-001 6.25471149860968e+000
1.80000000000000e+000 9.21943093025732e-001 -8.99444103526860e+000
1.90000000000000e+000 8.26702239921709e-001 -3.03951886569974e+001
2.00000000000000e+000 5.81451698831872e-001 -6.11314157702679e+001
2.10000000000000e+000 2.07517223383805e-001 -9.23731458292177e+001
2.20000000000000e+000 6.46630020012698e-002 -5.07935786680464e+001
2.30000000000000e+000 1.97508727613774e-001 -1.68221273199377e+002
2.40000000000000e+000 5.68246626064642e-001 1.21386019855836e+002
2.50000000000000e+000 7.41670254142050e-001 8.59899676624789e+001
2.60000000000000e+000 8.05851109085743e-001 6.70428902181904e+001
2.70000000000000e+000 8.36881066120080e-001 5.51792555121116e+001
2.80000000000000e+000 8.55314045008650e-001 4.67825004761437e+001
2.90000000000000e+000 8.67634434856794e-001 4.03275764688232e+001
3.00000000000000e+000 8.76401016526286e-001 3.50709767114810e+001
3.10000000000000e+000 8.82732327194398e-001 3.06026117680929e+001
3.20000000000000e+000 8.86964560620326e-001 2.66732367418680e+001

! acs =  6 12 5 8 3 5 4
! insert_points = 3
! eps2d = 3e-005 3e-005 eps3d = 0.0001 0.0001
! max_factor = 2.5 extract_factor = 0.2 far_factor=0.5 eps_thin = 0.0001 eps_far = 0.01
! max_pts = 12 max_pts_inc_st = 1 max_pts_inc_nr = 1 rate_pts = 2.5 next_ratio = 1.5 max_images=500000
! auto_fixed_lambda = 0 increase_rate = 0.1 min_lambda = 100 max_lambda = 1e+006
