! 
# GHZ S MA R 50
! Nport = 1
1.20000000000000e+000 9.37757355095136e-001 6.84345880438072e+001
1.30000000000000e+000 9.39981610836005e-001 5.76385161475009e+001
1.40000000000000e+000 9.41610403566690e-001 4.82316366559634e+001
1.50000000000000e+000 9.42043325592784e-001 3.96498619578805e+001
1.60000000000000e+000 9.40099533919655e-001 3.13818329450419e+001
1.70000000000000e+000 9.33069108952335e-001 2.28626346922325e+001
1.80000000000000e+000 9.14163677961390e-001 1.33253640160896e+001
1.90000000000000e+000 8.65223136375764e-001 1.61033773273769e+000
2.00000000000000e+000 7.39606549727241e-001 -1.35408753807249e+001
2.10000000000000e+000 4.72094571718975e-001 -2.78793950104697e+001
2.20000000000000e+000 2.30768099833977e-001 -2.38392372031218e+000
2.30000000000000e+000 3.04771001395507e-001 2.69229947500551e+001
2.40000000000000e+000 2.77259240238060e-001 2.70390645597106e+001
2.50000000000000e+000 3.68400313897976e-001 8.18673605277887e+001
2.60000000000000e+000 7.24991684304008e-001 6.19729216382864e+001
2.70000000000000e+000 8.18883662113088e-001 4.62825335174571e+001
2.80000000000000e+000 8.49579576338336e-001 3.72965045446443e+001
2.90000000000000e+000 8.64737048404752e-001 3.11851734050704e+001
3.00000000000000e+000 8.74084614639127e-001 2.65144624925755e+001
3.10000000000000e+000 8.80426850372043e-001 2.26761769827097e+001
3.20000000000000e+000 8.84767409141453e-001 1.93674122862331e+001

! acs =  6 12 5 8 3 5 4
! insert_points = 3
! eps2d = 3e-005 3e-005 eps3d = 0.0001 0.0001
! max_factor = 2.5 extract_factor = 0.2 far_factor=0.5 eps_thin = 0.0001 eps_far = 0.01
! max_pts = 12 max_pts_inc_st = 1 max_pts_inc_nr = 1 rate_pts = 2.5 next_ratio = 1.5 max_images=500000
! auto_fixed_lambda = 0 increase_rate = 0.1 min_lambda = 100 max_lambda = 1e+006
