! 
# GHZ S MA R 50
! Nport = 1
1.40000000000000e+000 9.49662616280287e-001 4.63253258361757e+001
1.50000000000000e+000 9.48439813436660e-001 3.75466335737797e+001
1.60000000000000e+000 9.43811811166919e-001 2.88156060649973e+001
1.70000000000000e+000 9.31430955407749e-001 1.94796317132262e+001
1.80000000000000e+000 8.99933182312687e-001 8.59294613007094e+000
1.90000000000000e+000 8.18581166219160e-001 -5.14034814359909e+000
2.00000000000000e+000 6.21270322727108e-001 -2.11225732463783e+001
2.10000000000000e+000 3.37684075127529e-001 -1.93075849288127e+001
2.20000000000000e+000 3.35234090773643e-001 8.51897967213761e+000
2.30000000000000e+000 3.61299349824386e-001 -9.98616834934512e+000
2.40000000000000e+000 1.72524647370726e-001 -1.60132941995522e+002
2.50000000000000e+000 6.60449724125066e-001 9.18526121406185e+001
2.60000000000000e+000 7.96664690355445e-001 6.22871001172545e+001
2.70000000000000e+000 8.38561353467714e-001 4.84157556507868e+001
2.80000000000000e+000 8.58788486783746e-001 3.98566418289152e+001
2.90000000000000e+000 8.70994612095667e-001 3.36964777349464e+001
3.00000000000000e+000 8.79049607117735e-001 2.88350112624202e+001
3.10000000000000e+000 8.84297424921379e-001 2.47591817916374e+001
3.20000000000000e+000 8.86990365362084e-001 2.11970265330462e+001
3.30000000000000e+000 8.86582067902086e-001 1.80178300818328e+001
3.40000000000000e+000 8.82428452262267e-001 1.52492793268386e+001

! acs =  6 12 5 8 3 5 4
! insert_points = 3
! eps2d = 3e-005 3e-005 eps3d = 0.0001 0.0001
! max_factor = 2.5 extract_factor = 0.2 far_factor=0.5 eps_thin = 0.0001 eps_far = 0.01
! max_pts = 12 max_pts_inc_st = 1 max_pts_inc_nr = 1 rate_pts = 2.5 next_ratio = 1.5 max_images=500000
! auto_fixed_lambda = 0 increase_rate = 0.1 min_lambda = 100 max_lambda = 1e+006
