! 
# GHZ S MA R 50
! Nport = 1
1.20000000000000e+000 9.58248635612969e-001 5.82298875646395e+001
1.30000000000000e+000 9.60217813024350e-001 4.83583880614963e+001
1.40000000000000e+000 9.61571681033200e-001 3.95235849399831e+001
1.50000000000000e+000 9.61623101149872e-001 3.12247593470256e+001
1.60000000000000e+000 9.58808552246556e-001 2.29742757912007e+001
1.70000000000000e+000 9.49207468326140e-001 1.41887399276311e+001
1.80000000000000e+000 9.22095730678823e-001 4.05439325874019e+000
1.90000000000000e+000 8.47090171900676e-001 -8.36440186479589e+000
2.00000000000000e+000 6.62449343948054e-001 -2.08431980820828e+001
2.10000000000000e+000 4.61380248836326e-001 -1.44464135269970e+001
2.20000000000000e+000 5.22502484018408e-001 -6.42455799486265e+000
2.30000000000000e+000 5.79038406252390e-001 -2.63251943012194e+001
2.40000000000000e+000 4.66467901924863e-001 -7.93451036337202e+001
2.50000000000000e+000 4.17085928023474e-001 1.61178920862788e+002
2.60000000000000e+000 6.42665855286468e-001 9.29114994132043e+001
2.70000000000000e+000 7.55473752306910e-001 6.54833930826736e+001
2.80000000000000e+000 8.07922381130172e-001 5.07941045627314e+001
2.90000000000000e+000 8.36643199369699e-001 4.13391745569154e+001
3.00000000000000e+000 8.54411625399891e-001 3.45023081776292e+001
3.10000000000000e+000 8.66202913174867e-001 2.91584317818661e+001
3.20000000000000e+000 8.74116418919199e-001 2.47467933912941e+001

! acs =  6 12 5 8 3 5 4
! insert_points = 3
! eps2d = 3e-005 3e-005 eps3d = 0.0001 0.0001
! max_factor = 2.5 extract_factor = 0.2 far_factor=0.5 eps_thin = 0.0001 eps_far = 0.01
! max_pts = 12 max_pts_inc_st = 1 max_pts_inc_nr = 1 rate_pts = 2.5 next_ratio = 1.5 max_images=500000
! auto_fixed_lambda = 0 increase_rate = 0.1 min_lambda = 100 max_lambda = 1e+006
