! 
# GHZ S MA R 50
! Nport = 1
2.00000000000000e+000 9.62434860390617e-001 2.46013683734348e+001
2.10000000000000e+000 9.58766182952242e-001 1.60509981335943e+001
2.20000000000000e+000 9.48757549934105e-001 6.59607731952443e+000
2.30000000000000e+000 9.25196796544888e-001 -4.46410039256782e+000
2.40000000000000e+000 8.71991408358153e-001 -1.81541653521356e+001
2.50000000000000e+000 7.56085958959972e-001 -3.56603793223301e+001
2.60000000000000e+000 5.35315098850778e-001 -5.64078862667381e+001
2.70000000000000e+000 2.41214908011264e-001 -6.81156960218431e+001
2.80000000000000e+000 1.36938187592454e-001 -8.27212928393103e+000
2.90000000000000e+000 2.44152526181601e-001 -4.46013587665273e+000
3.00000000000000e+000 2.49065534097330e-001 -3.84506767312784e+001
3.10000000000000e+000 1.95305256656031e-001 -1.21367424733739e+002
3.20000000000000e+000 3.68759952491710e-001 1.49554377087237e+002
3.30000000000000e+000 5.67666385090226e-001 1.07728063888022e+002
3.40000000000000e+000 6.81284754838331e-001 8.40488743320504e+001
3.50000000000000e+000 7.43328324068542e-001 6.89351193328079e+001
3.60000000000000e+000 7.80259610505008e-001 5.83614580823916e+001
3.70000000000000e+000 8.04339065683228e-001 5.04138549711015e+001
3.80000000000000e+000 8.21197251189682e-001 4.41060843752551e+001
3.90000000000000e+000 8.33612691001751e-001 3.88875137337277e+001
4.00000000000000e+000 8.43048554937951e-001 3.44274594881147e+001

! acs =  6 12 5 8 3 5 4
! insert_points = 3
! eps2d = 3e-005 3e-005 eps3d = 0.0001 0.0001
! max_factor = 2.5 extract_factor = 0.2 far_factor=0.5 eps_thin = 0.0001 eps_far = 0.01
! max_pts = 12 max_pts_inc_st = 1 max_pts_inc_nr = 1 rate_pts = 2.5 next_ratio = 1.5 max_images=500000
! auto_fixed_lambda = 0 increase_rate = 0.1 min_lambda = 100 max_lambda = 1e+006
