! 
# GHZ S MA R 50
! Nport = 1
2.00000000000000e+000 9.58972744106705e-001 2.44187604152839e+001
2.10000000000000e+000 9.57168350067060e-001 1.67489561552314e+001
2.20000000000000e+000 9.50667571893360e-001 8.44099114908518e+000
2.30000000000000e+000 9.34407221335068e-001 -1.05874520300886e+000
2.40000000000000e+000 8.97252856357879e-001 -1.25443824179653e+001
2.50000000000000e+000 8.16029177191665e-001 -2.70217642559975e+001
2.60000000000000e+000 6.53526040777909e-001 -4.48060944321111e+001
2.70000000000000e+000 4.01802185913068e-001 -6.13738680039265e+001
2.80000000000000e+000 1.76225444382587e-001 -5.35983590452290e+001
2.90000000000000e+000 1.50965355181430e-001 -1.72398687990078e+001
3.00000000000000e+000 1.23060250166373e-001 -3.32568752882218e+001
3.10000000000000e+000 1.08256810503367e-001 1.69069380028583e+002
3.20000000000000e+000 4.04158521398856e-001 1.14019934297012e+002
3.30000000000000e+000 6.09202048333861e-001 8.49624086525992e+001
3.40000000000000e+000 7.11494392069298e-001 6.69422875535147e+001
3.50000000000000e+000 7.64792997499449e-001 5.50679532931752e+001
3.60000000000000e+000 7.96238208406363e-001 4.65843593068831e+001
3.70000000000000e+000 8.16872949398258e-001 4.00964478809096e+001
3.80000000000000e+000 8.31494081163683e-001 3.48702319364346e+001
3.90000000000000e+000 8.42415879190602e-001 3.04911367911140e+001
4.00000000000000e+000 8.50856572495183e-001 2.67081099627884e+001

! acs =  6 12 5 8 3 5 4
! insert_points = 3
! eps2d = 3e-005 3e-005 eps3d = 0.0001 0.0001
! max_factor = 2.5 extract_factor = 0.2 far_factor=0.5 eps_thin = 0.0001 eps_far = 0.01
! max_pts = 12 max_pts_inc_st = 1 max_pts_inc_nr = 1 rate_pts = 2.5 next_ratio = 1.5 max_images=500000
! auto_fixed_lambda = 0 increase_rate = 0.1 min_lambda = 100 max_lambda = 1e+006
