! 
# GHZ S MA R 50
! Nport = 1
2.00000000000000e+000 9.66993930079916e-001 2.93036532700415e+001
2.10000000000000e+000 9.64098540661939e-001 2.02153126895328e+001
2.20000000000000e+000 9.56107009254523e-001 1.01978876587976e+001
2.30000000000000e+000 9.37432154714068e-001 -1.44577805961679e+000
2.40000000000000e+000 8.95907708655799e-001 -1.57755411921570e+001
2.50000000000000e+000 8.06004478002269e-001 -3.43425825352928e+001
2.60000000000000e+000 6.27027840500309e-001 -5.87459229611597e+001
2.70000000000000e+000 3.46368074895082e-001 -8.88002708110545e+001
2.80000000000000e+000 5.22961801079335e-002 -1.24705243438618e+002
2.90000000000000e+000 1.46996480993041e-001 2.92642900982600e+001
3.00000000000000e+000 2.21833624126400e-001 -1.12664843349265e+001
3.10000000000000e+000 2.14782549703223e-001 -7.89508772137852e+001
3.20000000000000e+000 3.25606607837481e-001 -1.67034009568580e+002
3.30000000000000e+000 5.22600876059098e-001 1.40075488055071e+002
3.40000000000000e+000 6.54225405660723e-001 1.09511216734185e+002
3.50000000000000e+000 7.27407594458088e-001 9.01941319648479e+001
3.60000000000000e+000 7.70083668304494e-001 7.69352635176892e+001
3.70000000000000e+000 7.97260522161636e-001 6.71650853757150e+001
3.80000000000000e+000 8.15941489592324e-001 5.95509153339816e+001
3.90000000000000e+000 8.29532284613542e-001 5.33534918057648e+001
4.00000000000000e+000 8.39798914714109e-001 4.81332649683812e+001

! acs =  6 12 5 8 3 5 4
! insert_points = 3
! eps2d = 3e-005 3e-005 eps3d = 0.0001 0.0001
! max_factor = 2.5 extract_factor = 0.2 far_factor=0.5 eps_thin = 0.0001 eps_far = 0.01
! max_pts = 12 max_pts_inc_st = 1 max_pts_inc_nr = 1 rate_pts = 2.5 next_ratio = 1.5 max_images=500000
! auto_fixed_lambda = 0 increase_rate = 0.1 min_lambda = 100 max_lambda = 1e+006
