! 
# GHZ S MA R 50
! Nport = 1
2.50000000000000e+000 8.42594379174134e-001 -1.00250268346914e+002
2.60000000000000e+000 7.36988948467087e-001 -1.33521059815360e+002
2.70000000000000e+000 5.91162177654505e-001 -1.72489354183003e+002
2.80000000000000e+000 4.12235103444430e-001 1.39118659273466e+002
2.90000000000000e+000 2.53739334189103e-001 6.59919772014922e+001
3.00000000000000e+000 2.92040448912897e-001 -2.98891839654532e+001
3.10000000000000e+000 4.58551446265780e-001 -8.96772895500589e+001
3.20000000000000e+000 5.95327717540355e-001 -1.28701662108134e+002
3.30000000000000e+000 6.82546988061277e-001 -1.57460567482244e+002
3.40000000000000e+000 7.35130606462357e-001 -1.79684123419786e+002
3.50000000000000e+000 7.67420554130487e-001 1.62587164434543e+002
3.60000000000000e+000 7.88202524535132e-001 1.48060842316925e+002
3.70000000000000e+000 8.02316410457837e-001 1.35882437573890e+002
3.80000000000000e+000 8.12398720471827e-001 1.25470678189771e+002
3.90000000000000e+000 8.19920272804743e-001 1.16419180558556e+002
4.00000000000000e+000 8.25732580378865e-001 1.08436320299292e+002
4.10000000000000e+000 8.30349939889756e-001 1.01307732700227e+002
4.20000000000000e+000 8.34098353731191e-001 9.48723739515704e+001
4.30000000000000e+000 8.37199880532018e-001 8.90067833003870e+001
4.40000000000000e+000 8.39832158454257e-001 8.36138745510443e+001
4.50000000000000e+000 8.42175648404118e-001 7.86103737673619e+001

! acs =  6 12 5 8 3 5 4
! insert_points = 3
! eps2d = 3e-005 3e-005 eps3d = 0.0001 0.0001
! max_factor = 2.5 extract_factor = 0.2 far_factor=0.5 eps_thin = 0.0001 eps_far = 0.01
! max_pts = 12 max_pts_inc_st = 1 max_pts_inc_nr = 1 rate_pts = 2.5 next_ratio = 1.5 max_images=500000
! auto_fixed_lambda = 0 increase_rate = 0.1 min_lambda = 100 max_lambda = 1e+006
