! 
# GHZ S MA R 50
! Nport = 1
2.50000000000000e+000 9.67988987652670e-001 1.82443477499550e+001
2.60000000000000e+000 9.63186696963511e-001 9.35528960472759e+000
2.70000000000000e+000 9.52068045834301e-001 -5.75974534299815e-001
2.80000000000000e+000 9.29099485410937e-001 -1.21050116034151e+001
2.90000000000000e+000 8.83966179179881e-001 -2.59986849043894e+001
3.00000000000000e+000 7.99984450145808e-001 -4.32725509857817e+001
3.10000000000000e+000 6.55133622769349e-001 -6.50641139090236e+001
3.20000000000000e+000 4.44448601595674e-001 -9.24790233507168e+001
3.30000000000000e+000 2.12526022519720e-001 -1.31268040372603e+002
3.40000000000000e+000 9.81712608631713e-002 1.28300818710753e+002
3.50000000000000e+000 1.95219101622265e-001 5.86014844503614e+001
3.60000000000000e+000 2.66383281294372e-001 2.71723980037738e+001
3.70000000000000e+000 2.79603709714171e-001 -1.32397621120717e+000
3.80000000000000e+000 2.38664138958687e-001 -3.72415325923171e+001
3.90000000000000e+000 1.86209212105672e-001 -9.62271635628973e+001
4.00000000000000e+000 2.41301045628542e-001 -1.67994697996872e+002
4.10000000000000e+000 3.75048445936240e-001 1.48431783348309e+002
4.20000000000000e+000 4.96552756212878e-001 1.21737405265087e+002
4.30000000000000e+000 5.85509190719814e-001 1.03297326968964e+002
4.40000000000000e+000 6.47456079916688e-001 8.97274868309477e+001
4.50000000000000e+000 6.90960958483204e-001 7.92882709424902e+001

! acs =  6 12 5 8 3 5 4
! insert_points = 3
! eps2d = 3e-005 3e-005 eps3d = 0.0001 0.0001
! max_factor = 2.5 extract_factor = 0.2 far_factor=0.5 eps_thin = 0.0001 eps_far = 0.01
! max_pts = 12 max_pts_inc_st = 1 max_pts_inc_nr = 1 rate_pts = 2.5 next_ratio = 1.5 max_images=500000
! auto_fixed_lambda = 0 increase_rate = 0.1 min_lambda = 100 max_lambda = 1e+006
