! 
# GHZ S MA R 50
! Nport = 1
2.50000000000000e+000 9.65404125099146e-001 -9.25169159809859e+000
2.60000000000000e+000 9.40444006082767e-001 -2.28238060279435e+001
2.70000000000000e+000 8.88987580216466e-001 -3.95644693807613e+001
2.80000000000000e+000 7.89832201424165e-001 -6.09885295099766e+001
2.90000000000000e+000 6.21579823125472e-001 -8.90220867704270e+001
3.00000000000000e+000 4.00085633380488e-001 -1.27199703556326e+002
3.10000000000000e+000 2.25480848297992e-001 1.71336560941966e+002
3.20000000000000e+000 2.32208932471709e-001 9.56999814945620e+001
3.30000000000000e+000 3.11859792280190e-001 5.18101161590644e+001
3.40000000000000e+000 3.61924392301251e-001 2.22584420919242e+001
3.50000000000000e+000 3.69471471597675e-001 -4.44299571944148e+000
3.60000000000000e+000 3.37996992270737e-001 -3.38905048267462e+001
3.70000000000000e+000 2.84133906916400e-001 -7.17019359971478e+001
3.80000000000000e+000 2.54917452130038e-001 -1.22124705428586e+002
3.90000000000000e+000 2.98328857667467e-001 -1.72433204697603e+002
4.00000000000000e+000 3.86031218102184e-001 1.51849277547718e+002
4.10000000000000e+000 4.74056528147345e-001 1.27563184462671e+002
4.20000000000000e+000 5.46707348393304e-001 1.10033661523582e+002
4.30000000000000e+000 6.03017884322944e-001 9.67099601289258e+001
4.40000000000000e+000 6.46066924615546e-001 8.61854021745828e+001
4.50000000000000e+000 6.79181559272067e-001 7.76155970489050e+001

! acs =  6 12 5 8 3 5 4
! insert_points = 3
! eps2d = 3e-005 3e-005 eps3d = 0.0001 0.0001
! max_factor = 2.5 extract_factor = 0.2 far_factor=0.5 eps_thin = 0.0001 eps_far = 0.01
! max_pts = 12 max_pts_inc_st = 1 max_pts_inc_nr = 1 rate_pts = 2.5 next_ratio = 1.5 max_images=500000
! auto_fixed_lambda = 0 increase_rate = 0.1 min_lambda = 100 max_lambda = 1e+006
