! 
# GHZ S MA R 50
! Nport = 1
3.00000000000000e+000 9.65117252028944e-001 2.57349505032990e+001
3.10000000000000e+000 9.61754522179367e-001 1.64283057192658e+001
3.20000000000000e+000 9.55172213668311e-001 6.30786808438292e+000
3.30000000000000e+000 9.43410933787716e-001 -4.90306438814463e+000
3.40000000000000e+000 9.23510707963544e-001 -1.75465067333523e+001
3.50000000000000e+000 8.91278892814466e-001 -3.20278460254440e+001
3.60000000000000e+000 8.41658671838598e-001 -4.87960654970504e+001
3.70000000000000e+000 7.70058715636407e-001 -6.82833758946022e+001
3.80000000000000e+000 6.76102036658994e-001 -9.08135505723547e+001
3.90000000000000e+000 5.67482141643343e-001 -1.16569059282627e+002
4.00000000000000e+000 4.59481055750355e-001 -1.45600928580925e+002
4.10000000000000e+000 3.67244159775386e-001 -1.77668579447492e+002
4.20000000000000e+000 2.95565225794876e-001 1.48103523343185e+002
4.30000000000000e+000 2.34796401081295e-001 1.12519747832614e+002
4.40000000000000e+000 1.67589824476146e-001 7.28940654165832e+001
4.50000000000000e+000 9.43458576995882e-002 8.09509324261764e+000
4.60000000000000e+000 1.37649267289673e-001 -9.60178291775326e+001
4.70000000000000e+000 2.87487282586838e-001 -1.45826964184586e+002
4.80000000000000e+000 4.35335092886703e-001 -1.77615395139125e+002
4.90000000000000e+000 5.47917526683881e-001 1.58342490576655e+002
5.00000000000000e+000 6.24300676058530e-001 1.39720362042264e+002

! acs =  6 12 5 8 3 5 4
! insert_points = 3
! eps2d = 3e-005 3e-005 eps3d = 0.0001 0.0001
! max_factor = 2.5 extract_factor = 0.2 far_factor=0.5 eps_thin = 0.0001 eps_far = 0.01
! max_pts = 12 max_pts_inc_st = 1 max_pts_inc_nr = 1 rate_pts = 2.5 next_ratio = 1.5 max_images=500000
! auto_fixed_lambda = 0 increase_rate = 0.1 min_lambda = 100 max_lambda = 1e+006
