! 
# GHZ S MA R 50
! Nport = 1
3.00000000000000e+000 9.37315094511977e-001 2.03250954351188e+001
3.10000000000000e+000 9.19230070798214e-001 8.26350313746998e+000
3.20000000000000e+000 8.88109415770217e-001 -5.86440779104429e+000
3.30000000000000e+000 8.35800400815749e-001 -2.28491756846935e+001
3.40000000000000e+000 7.52295219889512e-001 -4.36974590293709e+001
3.50000000000000e+000 6.32086008725384e-001 -6.96023765897420e+001
3.60000000000000e+000 4.88530219415180e-001 -1.02165719205851e+002
3.70000000000000e+000 3.63236922674153e-001 -1.43669252519018e+002
3.80000000000000e+000 3.04751460090785e-001 1.67403330536173e+002
3.90000000000000e+000 3.11750124050974e-001 1.22461181933179e+002
4.00000000000000e+000 3.37311395172918e-001 8.65948306287205e+001
4.10000000000000e+000 3.49081075827510e-001 5.49522556885384e+001
4.20000000000000e+000 3.35797850003173e-001 2.10427741662304e+001
4.30000000000000e+000 3.06038462398984e-001 -2.28675425790217e+001
4.40000000000000e+000 3.11646435584698e-001 -8.12369208219250e+001
4.50000000000000e+000 4.03112862225600e-001 -1.37330934937430e+002
4.60000000000000e+000 5.25327551911067e-001 -1.77756218024404e+002
4.70000000000000e+000 6.21683727070493e-001 1.54126557539977e+002
4.80000000000000e+000 6.85325655715597e-001 1.33964454136711e+002
4.90000000000000e+000 7.26168781155603e-001 1.18920405310940e+002
5.00000000000000e+000 7.53161290363755e-001 1.07233318688617e+002

! acs =  6 12 5 8 3 5 4
! insert_points = 3
! eps2d = 3e-005 3e-005 eps3d = 0.0001 0.0001
! max_factor = 2.5 extract_factor = 0.2 far_factor=0.5 eps_thin = 0.0001 eps_far = 0.01
! max_pts = 12 max_pts_inc_st = 1 max_pts_inc_nr = 1 rate_pts = 2.5 next_ratio = 1.5 max_images=500000
! auto_fixed_lambda = 0 increase_rate = 0.1 min_lambda = 100 max_lambda = 1e+006
