! 
# GHZ S MA R 50
! Nport = 1
4.40000000000000e+000 5.62218178995232e-001 -8.29083952548431e+001
4.48947368421000e+000 4.66467831375967e-001 -1.03632075059471e+002
4.57894736842000e+000 3.76331107832847e-001 -1.27134516205461e+002
4.66842105263000e+000 3.02255235137114e-001 -1.53402163508214e+002
4.75789473684000e+000 2.48372461225058e-001 1.78810036105434e+002
4.84736842105000e+000 2.07859199974028e-001 1.52421905817370e+002
4.93684210526000e+000 1.64636160976644e-001 1.31441839808457e+002
5.02631578947000e+000 1.05841519923547e-001 1.27174440819061e+002
5.11578947368000e+000 1.04283039932827e-001 1.75774865985273e+002
5.20526315789000e+000 2.55837640057080e-001 -1.77197243861297e+002
5.29473684210000e+000 4.37330848177493e-001 1.64160070950845e+002
5.38421052631000e+000 5.75504586581218e-001 1.43792625748921e+002
5.47368421052000e+000 6.58889732328806e-001 1.26770500350289e+002
5.56315789473000e+000 7.06284509808313e-001 1.13385769914119e+002
5.65263157894000e+000 7.34471876631773e-001 1.02800962045575e+002
5.74210526315000e+000 7.52717925884218e-001 9.42172754342029e+001
5.83157894736000e+000 7.65597965563390e-001 8.70642917382448e+001
5.92105263157000e+000 7.75374069870331e-001 8.09572807616096e+001
6.01052631578000e+000 7.83210754894895e-001 7.56356513773668e+001
6.09999999999000e+000 7.89739765586774e-001 7.09187424607883e+001

! acs =  6 12 5 8 3 5 4
! insert_points = 3
! eps2d = 3e-005 3e-005 eps3d = 0.0001 0.0001
! max_factor = 2.5 extract_factor = 0.2 far_factor=0.5 eps_thin = 0.0001 eps_far = 0.01
! max_pts = 12 max_pts_inc_st = 1 max_pts_inc_nr = 1 rate_pts = 2.5 next_ratio = 1.5 max_images=500000
! auto_fixed_lambda = 0 increase_rate = 0.1 min_lambda = 100 max_lambda = 1e+006
