! 
# GHZ S MA R 50
! Nport = 1
3.00000000000000e+000 9.44805000867778e-001 6.33274971750229e+001
3.15500000000000e+000 9.43905257718281e-001 5.33221744795885e+001
3.31000000000000e+000 9.41913150949573e-001 4.30745507396072e+001
3.46500000000000e+000 9.37591455317239e-001 3.22634719998009e+001
3.62000000000000e+000 9.28719084999501e-001 2.04627803183424e+001
3.77500000000000e+000 9.11209132374800e-001 7.08454070153012e+000
3.93000000000000e+000 8.77485970117332e-001 -8.66880981767704e+000
4.08500000000000e+000 8.16991623096012e-001 -2.78527897102078e+001
4.24000000000000e+000 7.14825989451341e-001 -5.18254464654852e+001
4.39500000000000e+000 5.67500557985573e-001 -8.18260417722394e+001
4.55000000000000e+000 4.04170058645217e-001 -1.19212923906571e+002
4.70500000000000e+000 2.77903719565374e-001 -1.64712427806863e+002
4.86000000000000e+000 2.02347503411788e-001 1.49020448196693e+002
5.01500000000000e+000 1.13690824226024e-001 1.25581706794235e+002
5.17000000000000e+000 1.86402264784010e-001 -1.73956510482016e+002
5.32500000000000e+000 4.90657649534668e-001 1.57045924653099e+002
5.48000000000000e+000 6.63173470209240e-001 1.25714459831290e+002
5.63500000000000e+000 7.29909980209454e-001 1.04706518829713e+002
5.79000000000000e+000 7.60100738637839e-001 9.02383980142216e+001
5.94500000000000e+000 7.77628753869512e-001 7.94646270587903e+001
6.10000000000000e+000 7.89739765587445e-001 7.09187424602898e+001

! acs =  6 12 5 8 3 5 4
! insert_points = 3
! eps2d = 3e-005 3e-005 eps3d = 0.0001 0.0001
! max_factor = 2.5 extract_factor = 0.2 far_factor=0.5 eps_thin = 0.0001 eps_far = 0.01
! max_pts = 12 max_pts_inc_st = 1 max_pts_inc_nr = 1 rate_pts = 2.5 next_ratio = 1.5 max_images=500000
! auto_fixed_lambda = 0 increase_rate = 0.1 min_lambda = 100 max_lambda = 1e+006
