! 
# GHZ S MA R 50
! Nport = 1
3.00000000000000e+000 9.64262142687173e-001 5.46988855042762e+001
3.15500000000000e+000 9.60632901766723e-001 4.14534570454475e+001
3.31000000000000e+000 9.53425027720252e-001 2.66521601660851e+001
3.46500000000000e+000 9.38807735776823e-001 9.56133819582191e+000
3.62000000000000e+000 9.10117677462522e-001 -1.07011482465066e+001
3.77500000000000e+000 8.58001093131585e-001 -3.54676697544945e+001
3.93000000000000e+000 7.69886815408477e-001 -6.57516588377752e+001
4.08500000000000e+000 6.45490711073627e-001 -1.01927153414233e+002
4.24000000000000e+000 5.01884007420528e-001 -1.43269047119383e+002
4.39500000000000e+000 3.48348689920007e-001 1.70858173609690e+002
4.55000000000000e+000 1.50753593199944e-001 1.10938001738173e+002
4.70500000000000e+000 1.99136422250143e-001 -7.56667128535640e+001
4.86000000000000e+000 5.42692543831566e-001 -1.38880441662371e+002
5.01500000000000e+000 7.25351562234674e-001 1.79706034294203e+002
5.17000000000000e+000 7.91118404524944e-001 1.52215067159700e+002
5.32500000000000e+000 8.15931231459673e-001 1.32925497357807e+002
5.48000000000000e+000 8.27428497171969e-001 1.18387061608039e+002
5.63500000000000e+000 8.34055099329953e-001 1.06789284178748e+002
5.79000000000000e+000 8.38548783580160e-001 9.71345097578608e+001
5.94500000000000e+000 8.41849839088436e-001 8.88264825116136e+001
6.10000000000000e+000 8.44215121683285e-001 8.14775734192461e+001

! acs =  6 12 5 8 3 5 4
! insert_points = 3
! eps2d = 3e-005 3e-005 eps3d = 0.0001 0.0001
! max_factor = 2.5 extract_factor = 0.2 far_factor=0.5 eps_thin = 0.0001 eps_far = 0.01
! max_pts = 12 max_pts_inc_st = 1 max_pts_inc_nr = 1 rate_pts = 2.5 next_ratio = 1.5 max_images=500000
! auto_fixed_lambda = 0 increase_rate = 0.1 min_lambda = 100 max_lambda = 1e+006
