! 
# GHZ S MA R 50
! Nport = 1
2.60000000000000e+000 9.65655000953035e-001 1.01827113750986e+002
2.80000000000000e+000 9.64832500057862e-001 8.78041433207504e+001
3.00000000000000e+000 9.64711767257565e-001 7.40209662405029e+001
3.20000000000000e+000 9.64963119678411e-001 6.01763725305952e+001
3.40000000000000e+000 9.64957462536655e-001 4.59063423100107e+001
3.60000000000000e+000 9.63493858290141e-001 3.07534141474266e+001
3.80000000000000e+000 9.58274444336043e-001 1.41251728703650e+001
4.00000000000000e+000 9.44990929510466e-001 -4.74849958943577e+000
4.20000000000000e+000 9.16132087616718e-001 -2.68196277536241e+001
4.40000000000000e+000 8.60842455292506e-001 -5.30834379155312e+001
4.60000000000000e+000 7.69611730864870e-001 -8.41552528409328e+001
4.80000000000000e+000 6.44376295555604e-001 -1.19663719246642e+002
5.00000000000000e+000 4.96380528200179e-001 -1.57999665654402e+002
5.20000000000000e+000 3.14515010178442e-001 1.64357723094830e+002
5.40000000000000e+000 9.31803784599243e-002 -1.77249038711252e+002
5.60000000000000e+000 3.90175934312002e-001 -1.48230714199625e+002
5.80000000000000e+000 6.35360180705038e-001 1.73379356081316e+002
6.00000000000000e+000 7.28220536736885e-001 1.44733939728359e+002
6.20000000000000e+000 7.63732330618452e-001 1.24395747528149e+002
6.40000000000000e+000 7.81139155270508e-001 1.09052923660958e+002

! acs =  6 12 5 8 3 5 4
! insert_points = 3
! eps2d = 3e-005 3e-005 eps3d = 0.0001 0.0001
! max_factor = 2.5 extract_factor = 0.2 far_factor=0.5 eps_thin = 0.0001 eps_far = 0.01
! max_pts = 12 max_pts_inc_st = 1 max_pts_inc_nr = 1 rate_pts = 2.5 next_ratio = 1.5 max_images=500000
! auto_fixed_lambda = 0 increase_rate = 0.1 min_lambda = 100 max_lambda = 1e+006
