! 
# GHZ S MA R 50
! Nport = 1
2.60000000000000e+000 9.34548725411497e-001 7.60952051768757e+001
2.80000000000000e+000 9.37127518507401e-001 6.29092478490363e+001
3.00000000000000e+000 9.40024678704059e-001 5.08557953125403e+001
3.20000000000000e+000 9.42507127642400e-001 3.94495010374727e+001
3.40000000000000e+000 9.43413603876456e-001 2.81993482043744e+001
3.60000000000000e+000 9.40475182812189e-001 1.65447520890631e+001
3.80000000000000e+000 9.28805091721900e-001 3.75952882289140e+000
4.00000000000000e+000 8.97478002136897e-001 -1.11760689940527e+001
4.20000000000000e+000 8.23039596093472e-001 -2.96283233856760e+001
4.40000000000000e+000 6.66814656049789e-001 -5.26754026810728e+001
4.60000000000000e+000 4.14668189800680e-001 -7.80671179922937e+001
4.80000000000000e+000 1.62316596592225e-001 -8.96581599172623e+001
5.00000000000000e+000 1.04672667068082e-001 -5.58399996143020e+001
5.20000000000000e+000 1.51100700642782e-001 -1.14895578200352e+002
5.40000000000000e+000 3.41042016027579e-001 1.57874077997636e+002
5.60000000000000e+000 5.42679917497555e-001 1.08750079453777e+002
5.80000000000000e+000 6.48299355217777e-001 8.11322710788020e+001
6.00000000000000e+000 7.04087647471275e-001 6.39687287047116e+001
6.20000000000000e+000 7.38214961503362e-001 5.20486710678513e+001
6.40000000000000e+000 7.61565347041609e-001 4.30331944595586e+001

! acs =  6 12 5 8 3 5 4
! insert_points = 3
! eps2d = 3e-005 3e-005 eps3d = 0.0001 0.0001
! max_factor = 2.5 extract_factor = 0.2 far_factor=0.5 eps_thin = 0.0001 eps_far = 0.01
! max_pts = 12 max_pts_inc_st = 1 max_pts_inc_nr = 1 rate_pts = 2.5 next_ratio = 1.5 max_images=500000
! auto_fixed_lambda = 0 increase_rate = 0.1 min_lambda = 100 max_lambda = 1e+006
