! 
# GHZ S MA R 50
! Nport = 1
2.60000000000000e+000 9.49822116740011e-001 8.87258791043968e+001
2.80000000000000e+000 9.50541823417547e-001 7.50500104485159e+001
3.00000000000000e+000 9.51930291958323e-001 6.21909148689252e+001
3.20000000000000e+000 9.53405122076320e-001 4.97482280770770e+001
3.40000000000000e+000 9.54040109620828e-001 3.72790325345152e+001
3.60000000000000e+000 9.52112776596647e-001 2.42497484760068e+001
3.80000000000000e+000 9.44130316953374e-001 9.95647288395342e+000
4.00000000000000e+000 9.22704197517353e-001 -6.59342653985319e+000
4.20000000000000e+000 8.73078369529861e-001 -2.67655501634422e+001
4.40000000000000e+000 7.70644103242030e-001 -5.23859817522508e+001
4.60000000000000e+000 5.92978005256475e-001 -8.49404962167395e+001
4.80000000000000e+000 3.67336375270451e-001 -1.24904990771673e+002
5.00000000000000e+000 1.69742366809620e-001 -1.71194313545884e+002
5.20000000000000e+000 4.92520835324851e-002 -1.57376080490366e+002
5.40000000000000e+000 2.49785190760223e-001 -1.52200591517988e+002
5.60000000000000e+000 5.02415251182102e-001 1.58924772734854e+002
5.80000000000000e+000 6.39553633815495e-001 1.23406288953976e+002
6.00000000000000e+000 7.02427966633364e-001 1.00313444641437e+002
6.20000000000000e+000 7.36764596918901e-001 8.43680470023809e+001
6.40000000000000e+000 7.59103062239868e-001 7.24963036893325e+001

! acs =  6 12 5 8 3 5 4
! insert_points = 3
! eps2d = 3e-005 3e-005 eps3d = 0.0001 0.0001
! max_factor = 2.5 extract_factor = 0.2 far_factor=0.5 eps_thin = 0.0001 eps_far = 0.01
! max_pts = 12 max_pts_inc_st = 1 max_pts_inc_nr = 1 rate_pts = 2.5 next_ratio = 1.5 max_images=500000
! auto_fixed_lambda = 0 increase_rate = 0.1 min_lambda = 100 max_lambda = 1e+006
