! 
# GHZ S MA R 50
! Nport = 1
4.50000000000000e+000 9.12359247235041e-001 -4.43428615722574e+001
4.61500000000000e+000 8.79932312484082e-001 -5.74712453258218e+001
4.73000000000000e+000 8.35571220860310e-001 -7.18423054828520e+001
4.84500000000000e+000 7.77072882558826e-001 -8.75533938042345e+001
4.96000000000000e+000 7.02987737252133e-001 -1.04649448291014e+002
5.07500000000000e+000 6.13020390939456e-001 -1.23109710022707e+002
5.19000000000000e+000 5.07899611219584e-001 -1.42832075441918e+002
5.30500000000000e+000 3.88569304015210e-001 -1.63551747788492e+002
5.42000000000000e+000 2.55361526473107e-001 1.75656637979732e+002
5.53500000000000e+000 1.09850340207067e-001 1.61301483020139e+002
5.65000000000000e+000 6.70422834925989e-002 -9.51653599508587e+001
5.76500000000000e+000 2.23409976465171e-001 -9.97113301135121e+001
5.88000000000000e+000 3.69884895398809e-001 -1.22481349858979e+002
5.99500000000000e+000 4.85887083393921e-001 -1.45497836499184e+002
6.11000000000000e+000 5.68023952042863e-001 -1.66338234454806e+002
6.22500000000000e+000 6.22943032185577e-001 1.75542500095929e+002
6.34000000000000e+000 6.59477832479592e-001 1.59994370302299e+002
6.45500000000000e+000 6.84563464000201e-001 1.46643596966295e+002
6.57000000000000e+000 7.02685287730008e-001 1.35099582170695e+002
6.68500000000000e+000 7.16524903579615e-001 1.25024077756330e+002
6.80000000000000e+000 7.27646938462550e-001 1.16142814765213e+002

! acs =  6 12 5 8 3 5 4
! insert_points = 3
! eps2d = 3e-005 3e-005 eps3d = 0.0001 0.0001
! max_factor = 2.5 extract_factor = 0.2 far_factor=0.5 eps_thin = 0.0001 eps_far = 0.01
! max_pts = 12 max_pts_inc_st = 1 max_pts_inc_nr = 1 rate_pts = 2.5 next_ratio = 1.5 max_images=500000
! auto_fixed_lambda = 0 increase_rate = 0.1 min_lambda = 100 max_lambda = 1e+006
