! 
# GHZ S MA R 50
! Nport = 1
4.50000000000000e+000 8.55799275933906e-001 -4.17437248834292e+001
4.61500000000000e+000 7.82815617857461e-001 -5.37132168658191e+001
4.73000000000000e+000 6.75528722404605e-001 -6.69389162002165e+001
4.84500000000000e+000 5.29962599221063e-001 -8.05905600834399e+001
4.96000000000000e+000 3.55985644051586e-001 -9.17854418012594e+001
5.07500000000000e+000 1.88108137911697e-001 -8.94179922923350e+001
5.19000000000000e+000 1.31144476441696e-001 -4.32426367013727e+001
5.30500000000000e+000 2.22583365691869e-001 -2.28783417329380e+001
5.42000000000000e+000 3.18042092136515e-001 -3.01029255093203e+001
5.53500000000000e+000 3.86537571827473e-001 -4.44143259022203e+001
5.65000000000000e+000 4.27931811645185e-001 -6.19706045012795e+001
5.76500000000000e+000 4.47118110493274e-001 -8.19774761124167e+001
5.88000000000000e+000 4.51289055514355e-001 -1.04148703991264e+002
5.99500000000000e+000 4.49413848388783e-001 -1.27967740017383e+002
6.11000000000000e+000 4.50300596143631e-001 -1.52382976116023e+002
6.22500000000000e+000 4.59439971399565e-001 -1.75944191699826e+002
6.34000000000000e+000 4.77452199803502e-001 1.62632788119375e+002
6.45500000000000e+000 5.01616494524476e-001 1.43992775531347e+002
6.57000000000000e+000 5.28491736045534e-001 1.28153012593972e+002
6.68500000000000e+000 5.55452944736751e-001 1.14789070004422e+002
6.80000000000000e+000 5.80974390390821e-001 1.03480480335416e+002

! acs =  6 12 5 8 3 5 4
! insert_points = 3
! eps2d = 3e-005 3e-005 eps3d = 0.0001 0.0001
! max_factor = 2.5 extract_factor = 0.2 far_factor=0.5 eps_thin = 0.0001 eps_far = 0.01
! max_pts = 12 max_pts_inc_st = 1 max_pts_inc_nr = 1 rate_pts = 2.5 next_ratio = 1.5 max_images=500000
! auto_fixed_lambda = 0 increase_rate = 0.1 min_lambda = 100 max_lambda = 1e+006
