! 
# GHZ S MA R 50
! Nport = 1
3.00000000000000e-001 9.66024240515312e-001 1.46858071344578e+002
4.05000000000000e-001 9.59644029461200e-001 9.54721880774685e+001
5.10000000000000e-001 9.60878534381844e-001 6.14945168495406e+001
6.15000000000000e-001 9.57540316107556e-001 3.29332345193698e+001
7.20000000000000e-001 8.51150820502627e-001 -6.70662099453033e+000
8.25000000000000e-001 2.09124975444827e-001 3.12789215186779e+001
9.30000000000000e-001 3.53135363242253e-001 -6.67337460383458e+001
1.03500000000000e+000 7.34392768095728e-001 8.82505274269881e+001
1.14000000000000e+000 8.40273605754159e-001 5.22283375816826e+001
1.24500000000000e+000 8.66100058586903e-001 3.62419982440977e+001
1.35000000000000e+000 8.67804047104939e-001 2.59143070792773e+001
1.45500000000000e+000 8.71909236048324e-001 1.84989006297791e+001
1.56000000000000e+000 8.70389261471233e-001 1.19115964769011e+001
1.66500000000000e+000 8.59635187730619e-001 6.22554235516980e+000
1.77000000000000e+000 8.40115226606798e-001 1.72634961548152e+000
1.87500000000000e+000 8.26254656089384e-001 -8.68946222388086e-001
1.98000000000000e+000 8.49225217119452e-001 -3.05262450700984e+000
2.08500000000000e+000 8.85682813453130e-001 -7.77756675768718e+000
2.19000000000000e+000 9.02312837273675e-001 -1.40684547547737e+001
2.29500000000000e+000 8.97897708329627e-001 -2.12683845968698e+001

! acs =  6 12 5 8 3 5 4
! insert_points = 3
! eps2d = 3e-005 3e-005 eps3d = 0.0001 0.0001
! max_factor = 2.5 extract_factor = 0.2 far_factor=0.5 eps_thin = 0.0001 eps_far = 0.01
! max_pts = 12 max_pts_inc_st = 1 max_pts_inc_nr = 1 rate_pts = 2.5 next_ratio = 1.5 max_images=500000
! auto_fixed_lambda = 0 increase_rate = 0.1 min_lambda = 100 max_lambda = 1e+006
