! 
# GHZ S MA R 50
! Nport = 1
3.00000000000000e-001 9.60479846068973e-001 1.44801201205725e+002
4.05000000000000e-001 9.54489291572281e-001 9.21877422393920e+001
5.10000000000000e-001 9.56551570500730e-001 5.84984784077495e+001
6.15000000000000e-001 9.52392854322287e-001 3.02631346315173e+001
7.20000000000000e-001 8.23469228942364e-001 -1.09447085369367e+001
8.25000000000000e-001 2.03208354432565e-001 2.77048954563213e+001
9.30000000000000e-001 3.77802418032862e-001 1.48352515958233e+002
1.03500000000000e+000 8.23304613060236e-001 6.07449736269118e+001
1.14000000000000e+000 8.67520122293492e-001 3.95740433510517e+001
1.24500000000000e+000 8.80045664684934e-001 2.76811710102146e+001
1.35000000000000e+000 8.74440764977502e-001 1.94543215545000e+001
1.45500000000000e+000 8.78227188245128e-001 1.32240625173220e+001
1.56000000000000e+000 8.76115685830870e-001 7.41574985559970e+000
1.66500000000000e+000 8.65598936090786e-001 2.35872112935215e+000
1.77000000000000e+000 8.49527952139343e-001 -1.58413235946198e+000
1.87500000000000e+000 8.44618784957784e-001 -4.11389543698953e+000
1.98000000000000e+000 8.69055399048738e-001 -7.02531360048938e+000
2.08500000000000e+000 8.96466294845606e-001 -1.20551518880147e+001
2.19000000000000e+000 9.05982221570834e-001 -1.84175271717642e+001
2.29500000000000e+000 8.93151249740578e-001 -2.60780967948399e+001

! acs =  6 12 5 8 3 5 4
! insert_points = 3
! eps2d = 3e-005 3e-005 eps3d = 0.0001 0.0001
! max_factor = 2.5 extract_factor = 0.2 far_factor=0.5 eps_thin = 0.0001 eps_far = 0.01
! max_pts = 12 max_pts_inc_st = 1 max_pts_inc_nr = 1 rate_pts = 2.5 next_ratio = 1.5 max_images=500000
! auto_fixed_lambda = 0 increase_rate = 0.1 min_lambda = 100 max_lambda = 1e+006
