! 
# GHZ S MA R 50
! Nport = 1
3.00000000000000e-001 9.58697394714948e-001 1.38652921804215e+002
4.00000000000000e-001 9.55514057299342e-001 8.72499602515465e+001
5.00000000000000e-001 9.59729237033877e-001 5.45589807443146e+001
6.00000000000000e-001 9.60074920049209e-001 2.73830325382315e+001
7.00000000000000e-001 8.82858655655575e-001 -9.94730160444761e+000
8.00000000000000e-001 1.36860789145488e-001 -5.14992139443244e+001
9.00000000000000e-001 4.06600473882332e-001 1.46008829908272e+002
1.00000000000000e+000 8.15065828645507e-001 6.22573821811735e+001
1.10000000000000e+000 8.63703131486589e-001 4.01218315179866e+001
1.20000000000000e+000 8.80364005320411e-001 2.78825851799317e+001
1.30000000000000e+000 8.81811475851747e-001 1.90683745507748e+001
1.40000000000000e+000 8.80409285788631e-001 1.27498487884451e+001
1.50000000000000e+000 8.82289497643959e-001 6.99579023692263e+000
1.60000000000000e+000 8.77347630264032e-001 1.79731886811502e+000
1.70000000000000e+000 8.66629791462752e-001 -2.66866259064301e+000
1.80000000000000e+000 8.56680918044576e-001 -6.08592263354807e+000
1.90000000000000e+000 8.64997304386111e-001 -8.87561894564145e+000
2.00000000000000e+000 8.92234998808401e-001 -1.30139520509321e+001
2.10000000000000e+000 9.10498553265939e-001 -1.90947350822847e+001
2.20000000000000e+000 9.05927752935064e-001 -2.67769112239782e+001
2.30000000000000e+000 8.56163625022595e-001 -3.67597497153835e+001

! acs =  6 12 5 8 3 5 4
! insert_points = 3
! eps2d = 3e-005 3e-005 eps3d = 0.0001 0.0001
! max_factor = 2.5 extract_factor = 0.2 far_factor=0.5 eps_thin = 0.0001 eps_far = 0.01
! max_pts = 12 max_pts_inc_st = 1 max_pts_inc_nr = 1 rate_pts = 2.5 next_ratio = 1.5 max_images=500000
! auto_fixed_lambda = 0 increase_rate = 0.1 min_lambda = 100 max_lambda = 1e+006
