! 
# GHZ S MA R 50
! Nport = 1
3.00000000000000e-001 9.65981002028946e-001 1.46812652678134e+002
4.05000000000000e-001 9.59645549383005e-001 9.51931952467511e+001
5.10000000000000e-001 9.61094899203186e-001 6.07944046917429e+001
6.15000000000000e-001 9.58039008225477e-001 3.12784648463235e+001
7.20000000000000e-001 8.48736625664853e-001 -1.16079465983044e+001
8.25000000000000e-001 1.21704587585262e-001 3.46706455205639e+001
9.30000000000000e-001 3.11657123282986e-001 -1.68335246870806e+002
1.03500000000000e+000 8.03007323756093e-001 7.34045768866450e+001
1.14000000000000e+000 8.59472088579536e-001 4.73868003166523e+001
1.24500000000000e+000 8.75808955379032e-001 3.36188820061101e+001
1.35000000000000e+000 8.71163878160901e-001 2.41921485494109e+001
1.45500000000000e+000 8.75471782469750e-001 1.73740756430217e+001
1.56000000000000e+000 8.74664791140741e-001 1.10050698395364e+001
1.66500000000000e+000 8.64663980620634e-001 5.42049808576850e+000
1.77000000000000e+000 8.46522611329361e-001 9.21500686955420e-001
1.87500000000000e+000 8.34204221130329e-001 -1.86147418704122e+000
1.98000000000000e+000 8.56541954941476e-001 -4.37303554231699e+000
2.08500000000000e+000 8.90702538198837e-001 -9.41987859393081e+000
2.19000000000000e+000 9.04413371451704e-001 -1.61585811113150e+001
2.29500000000000e+000 8.93571408316215e-001 -2.42156771818071e+001

! acs =  6 12 5 8 3 5 4
! insert_points = 3
! eps2d = 3e-005 3e-005 eps3d = 0.0001 0.0001
! max_factor = 2.5 extract_factor = 0.2 far_factor=0.5 eps_thin = 0.0001 eps_far = 0.01
! max_pts = 12 max_pts_inc_st = 1 max_pts_inc_nr = 1 rate_pts = 2.5 next_ratio = 1.5 max_images=500000
! auto_fixed_lambda = 0 increase_rate = 0.1 min_lambda = 100 max_lambda = 1e+006
