! 
# GHZ S MA R 50
! Nport = 1
3.00000000000000e-001 9.49761464299534e-001 1.37175866676056e+002
4.05000000000000e-001 9.47157821520265e-001 8.35517498910265e+001
5.10000000000000e-001 9.51583815951314e-001 5.20097687921926e+001
6.15000000000000e-001 9.46630125100552e-001 2.71151053118019e+001
7.20000000000000e-001 7.87765940799927e-001 -6.16196038741106e+000
8.25000000000000e-001 4.87790011628939e-001 1.37595332427080e+001
9.30000000000000e-001 1.91007430518352e-001 -1.13401024887126e+002
1.03500000000000e+000 7.82282531474613e-001 5.46511337443236e+001
1.14000000000000e+000 8.56367548470422e-001 3.17275084891563e+001
1.24500000000000e+000 8.74827633335104e-001 2.02720883138841e+001
1.35000000000000e+000 8.77285257903486e-001 1.24746259873394e+001
1.45500000000000e+000 8.78370394580164e-001 6.32321097265485e+000
1.56000000000000e+000 8.73269103453000e-001 9.78767569490763e-001
1.66500000000000e+000 8.61656295103796e-001 -3.48774978770714e+000
1.77000000000000e+000 8.49596603829150e-001 -6.74534846658512e+000
1.87500000000000e+000 8.54883598921785e-001 -9.09844282021911e+000
1.98000000000000e+000 8.80233068127981e-001 -1.23763298013811e+001
2.08500000000000e+000 9.01952922568160e-001 -1.71354825543744e+001
2.19000000000000e+000 9.10165619953336e-001 -2.27534861124634e+001
2.29500000000000e+000 9.02379588168633e-001 -2.92945799906675e+001

! acs =  6 12 5 8 3 5 4
! insert_points = 3
! eps2d = 3e-005 3e-005 eps3d = 0.0001 0.0001
! max_factor = 2.5 extract_factor = 0.2 far_factor=0.5 eps_thin = 0.0001 eps_far = 0.01
! max_pts = 12 max_pts_inc_st = 1 max_pts_inc_nr = 1 rate_pts = 2.5 next_ratio = 1.5 max_images=500000
! auto_fixed_lambda = 0 increase_rate = 0.1 min_lambda = 100 max_lambda = 1e+006
