! 
# GHZ S MA R 50
! Nport = 1
3.00000000000000e-001 9.65701882167454e-001 1.48297120861717e+002
4.00000000000000e-001 9.58718728007648e-001 9.87069726949971e+001
5.00000000000000e-001 9.59319142970162e-001 6.51142208995515e+001
6.00000000000000e-001 9.57624264587886e-001 3.69732663491012e+001
7.00000000000000e-001 8.95554808012884e-001 4.11821881148406e-001
8.00000000000000e-001 1.59483526910711e-001 -7.63476172745795e+001
9.00000000000000e-001 1.80651413024536e-001 -5.01096329819690e+001
1.00000000000000e+000 7.68468207755731e-001 8.58860487431056e+001
1.10000000000000e+000 8.53967145519993e-001 5.29812621776393e+001
1.20000000000000e+000 8.75150049297510e-001 3.77951835872969e+001
1.30000000000000e+000 8.77401486802503e-001 2.74689918928898e+001
1.40000000000000e+000 8.71666478738031e-001 2.05844749042345e+001
1.50000000000000e+000 8.76883838845097e-001 1.43682915813515e+001
1.60000000000000e+000 8.72799433427065e-001 8.67121466726250e+000
1.70000000000000e+000 8.60401452844316e-001 3.71085633465160e+000
1.80000000000000e+000 8.42406176124852e-001 -9.28949783916287e-002
1.90000000000000e+000 8.36908116152805e-001 -2.38498187349520e+000
2.00000000000000e+000 8.63868531606647e-001 -5.15186285263482e+000
2.10000000000000e+000 8.93202146126978e-001 -1.02377049849425e+001
2.20000000000000e+000 9.03403530649469e-001 -1.66543413695786e+001
2.30000000000000e+000 8.91926082157028e-001 -2.42521720608897e+001

! acs =  6 12 5 8 3 5 4
! insert_points = 3
! eps2d = 3e-005 3e-005 eps3d = 0.0001 0.0001
! max_factor = 2.5 extract_factor = 0.2 far_factor=0.5 eps_thin = 0.0001 eps_far = 0.01
! max_pts = 12 max_pts_inc_st = 1 max_pts_inc_nr = 1 rate_pts = 2.5 next_ratio = 1.5 max_images=500000
! auto_fixed_lambda = 0 increase_rate = 0.1 min_lambda = 100 max_lambda = 1e+006
