! 
# GHZ S MA R 50
! Nport = 1
3.00000000000000e-001 9.61353027929123e-001 1.40663267500417e+002
4.05000000000000e-001 9.57532071761141e-001 8.79375061579244e+001
5.10000000000000e-001 9.61285479824232e-001 5.44110352292249e+001
6.15000000000000e-001 9.59148287496288e-001 2.59239686120310e+001
7.20000000000000e-001 8.30109257955661e-001 -1.66731579372676e+001
8.25000000000000e-001 2.05525984627582e-001 9.29515596007098e+000
9.30000000000000e-001 4.63266262046075e-001 1.42442408204181e+002
1.03500000000000e+000 8.15141427601044e-001 6.23136764826937e+001
1.14000000000000e+000 8.62723897797781e-001 4.05344139041734e+001
1.24500000000000e+000 8.77906086308718e-001 2.82712250467722e+001
1.35000000000000e+000 8.76091463546497e-001 1.97125149208940e+001
1.45500000000000e+000 8.79274215489127e-001 1.31669315983465e+001
1.56000000000000e+000 8.76894166912748e-001 7.22885292075043e+000
1.66500000000000e+000 8.66752511000080e-001 2.06599060677075e+000
1.77000000000000e+000 8.51514746961068e-001 -1.99610672732808e+000
1.87500000000000e+000 8.48023375841893e-001 -4.69975660625661e+000
1.98000000000000e+000 8.74321415032450e-001 -7.93855952621697e+000
2.08500000000000e+000 9.02089299722385e-001 -1.35165643919660e+001
2.19000000000000e+000 9.08350858732653e-001 -2.07331531699565e+001
2.29500000000000e+000 8.81732582011118e-001 -2.98186488894799e+001

! acs =  6 12 5 8 3 5 4
! insert_points = 3
! eps2d = 3e-005 3e-005 eps3d = 0.0001 0.0001
! max_factor = 2.5 extract_factor = 0.2 far_factor=0.5 eps_thin = 0.0001 eps_far = 0.01
! max_pts = 12 max_pts_inc_st = 1 max_pts_inc_nr = 1 rate_pts = 2.5 next_ratio = 1.5 max_images=500000
! auto_fixed_lambda = 0 increase_rate = 0.1 min_lambda = 100 max_lambda = 1e+006
