! 
# GHZ S MA R 50
! Nport = 1
3.00000000000000e-001 9.68611071697231e-001 1.47415232857490e+002
4.00000000000000e-001 9.62440052483131e-001 9.83669489220630e+001
5.00000000000000e-001 9.63439649662926e-001 6.46996989461599e+001
6.00000000000000e-001 9.62797152089900e-001 3.62423825657258e+001
7.00000000000000e-001 9.07357492592624e-001 -3.63989949429907e-001
8.00000000000000e-001 1.90393511269943e-001 -7.53449007500232e+001
9.00000000000000e-001 3.07653425756157e-001 -3.85910795819515e+001
1.00000000000000e+000 7.08554480636137e-001 1.04656831279019e+002
1.10000000000000e+000 8.36080089298910e-001 6.12406907826444e+001
1.20000000000000e+000 8.65984837001490e-001 4.31580932277082e+001
1.30000000000000e+000 8.73884836885969e-001 3.15463077072036e+001
1.40000000000000e+000 8.70405903612924e-001 2.36284606477054e+001
1.50000000000000e+000 8.75067835043694e-001 1.68528145649892e+001
1.60000000000000e+000 8.71012851793536e-001 1.07559807175382e+001
1.70000000000000e+000 8.58444708578098e-001 5.43916481825060e+000
1.80000000000000e+000 8.38551013989111e-001 1.29554934246071e+000
1.90000000000000e+000 8.28520645125502e-001 -1.07423880544939e+000
2.00000000000000e+000 8.55884200377510e-001 -3.56846007751436e+000
2.10000000000000e+000 8.90559109550621e-001 -8.74257974974473e+000
2.20000000000000e+000 9.03693469040697e-001 -1.54798426845961e+001
2.30000000000000e+000 8.92956875802259e-001 -2.34106131828131e+001

! acs =  6 12 5 8 3 5 4
! insert_points = 3
! eps2d = 3e-005 3e-005 eps3d = 0.0001 0.0001
! max_factor = 2.5 extract_factor = 0.2 far_factor=0.5 eps_thin = 0.0001 eps_far = 0.01
! max_pts = 12 max_pts_inc_st = 1 max_pts_inc_nr = 1 rate_pts = 2.5 next_ratio = 1.5 max_images=500000
! auto_fixed_lambda = 0 increase_rate = 0.1 min_lambda = 100 max_lambda = 1e+006
