! 
# GHZ S MA R 50
! Nport = 1
3.00000000000000e-001 9.71076712593408e-001 1.48930359802424e+002
4.05000000000000e-001 9.64569965458344e-001 9.86041072648366e+001
5.10000000000000e-001 9.65289811074241e-001 6.36102290087270e+001
6.15000000000000e-001 9.62910769934134e-001 3.28404996648355e+001
7.20000000000000e-001 8.71149087182299e-001 -1.13972195324664e+001
8.25000000000000e-001 3.80230512452121e-002 7.24918541834980e+001
9.30000000000000e-001 3.05829137906599e-001 -1.15946370475192e+002
1.03500000000000e+000 7.76490898788296e-001 9.00404226104888e+001
1.14000000000000e+000 8.50218659008529e-001 5.70815227880104e+001
1.24500000000000e+000 8.71053482114387e-001 4.08189183159670e+001
1.35000000000000e+000 8.68368929431334e-001 2.98692339399854e+001
1.45500000000000e+000 8.72583736196076e-001 2.23058822931519e+001
1.56000000000000e+000 8.73381311585882e-001 1.52554490491305e+001
1.66500000000000e+000 8.64369420014554e-001 9.05045641449215e+000
1.77000000000000e+000 8.45249810377981e-001 3.86961025023166e+000
1.87500000000000e+000 8.24898200528139e-001 5.51447828497843e-001
1.98000000000000e+000 8.40263489832024e-001 -1.52014033510760e+000
2.08500000000000e+000 8.82089894813599e-001 -6.37488542998462e+000
2.19000000000000e+000 9.01764687248099e-001 -1.34824843688922e+001
2.29500000000000e+000 8.94200322136861e-001 -2.19079248397172e+001

! acs =  6 12 5 8 3 5 4
! insert_points = 3
! eps2d = 3e-005 3e-005 eps3d = 0.0001 0.0001
! max_factor = 2.5 extract_factor = 0.2 far_factor=0.5 eps_thin = 0.0001 eps_far = 0.01
! max_pts = 12 max_pts_inc_st = 1 max_pts_inc_nr = 1 rate_pts = 2.5 next_ratio = 1.5 max_images=500000
! auto_fixed_lambda = 0 increase_rate = 0.1 min_lambda = 100 max_lambda = 1e+006
