! 
# GHZ S MA R 50
! Nport = 1
3.00000000000000e-001 9.63558647315033e-001 1.44649947184434e+002
4.00000000000000e-001 9.59027957809362e-001 9.31695683972153e+001
5.00000000000000e-001 9.62354103540650e-001 5.99000274303665e+001
6.00000000000000e-001 9.64226062804387e-001 3.31194676843011e+001
7.00000000000000e-001 9.20299557375144e-001 5.61799805468888e-001
8.00000000000000e-001 2.95020261669212e-001 -5.51157367177869e+001
9.00000000000000e-001 3.28154925710751e-001 -3.70288436583136e+001
1.00000000000000e+000 6.57376502990514e-001 1.03166840940217e+002
1.10000000000000e+000 8.21459504826013e-001 5.73461902774111e+001
1.20000000000000e+000 8.59190305658090e-001 3.93365416403795e+001
1.30000000000000e+000 8.72671935437716e-001 2.81435141827132e+001
1.40000000000000e+000 8.72987139648440e-001 2.01482512150200e+001
1.50000000000000e+000 8.76041112404376e-001 1.37066273447454e+001
1.60000000000000e+000 8.73295449341033e-001 7.96274401741588e+000
1.70000000000000e+000 8.63842469508636e-001 2.94004942373540e+000
1.80000000000000e+000 8.48995088189664e-001 -1.13214608592785e+000
1.90000000000000e+000 8.40327113457882e-001 -3.88631485333094e+000
2.00000000000000e+000 8.58473985645814e-001 -6.42858277255309e+000
2.10000000000000e+000 8.89795650553900e-001 -1.09899876238692e+001
2.20000000000000e+000 9.05317242383735e-001 -1.73238924108735e+001
2.30000000000000e+000 8.96323802258119e-001 -2.50412644708723e+001

! acs =  6 12 5 8 3 5 4
! insert_points = 3
! eps2d = 3e-005 3e-005 eps3d = 0.0001 0.0001
! max_factor = 2.5 extract_factor = 0.2 far_factor=0.5 eps_thin = 0.0001 eps_far = 0.01
! max_pts = 12 max_pts_inc_st = 1 max_pts_inc_nr = 1 rate_pts = 2.5 next_ratio = 1.5 max_images=500000
! auto_fixed_lambda = 0 increase_rate = 0.1 min_lambda = 100 max_lambda = 1e+006
