! 
# GHZ S MA R 50
! Nport = 1
4.00000000000000e-001 9.58021655057542e-001 9.45248281069947e+001
5.00000000000000e-001 9.60830617757138e-001 6.10734345363467e+001
6.00000000000000e-001 9.62315543353623e-001 3.40817691645839e+001
7.00000000000000e-001 9.20289735007820e-001 1.20049606145977e+000
8.00000000000000e-001 3.33801765207894e-001 -6.21393710478318e+001
9.00000000000000e-001 2.09300666384199e-001 -6.54790640868012e+001
1.00000000000000e+000 7.40070144105426e-001 8.84211680941355e+001
1.10000000000000e+000 8.43035338887381e-001 5.26962713622228e+001
1.20000000000000e+000 8.70006258660090e-001 3.68786738504967e+001
1.30000000000000e+000 8.78808268819312e-001 2.64545357612819e+001
1.40000000000000e+000 8.74726694359490e-001 1.90262056308160e+001
1.50000000000000e+000 8.78835106566217e-001 1.29435316842802e+001
1.60000000000000e+000 8.76758314017329e-001 7.34878709540626e+000
1.70000000000000e+000 8.67814813654632e-001 2.42010930697198e+000
1.80000000000000e+000 8.53919403355190e-001 -1.58703139565163e+000
1.90000000000000e+000 8.47336767157374e-001 -4.36479235929705e+000
2.00000000000000e+000 8.66910033768985e-001 -7.13034540874396e+000
2.10000000000000e+000 8.96349709598830e-001 -1.19098377937972e+001
2.20000000000000e+000 9.09506262342446e-001 -1.83261043861453e+001
2.30000000000000e+000 8.99326141391577e-001 -2.61405976663253e+001
2.40000000000000e+000 8.44367160558858e-001 -3.60358387716177e+001

! acs =  6 12 5 8 3 5 4
! insert_points = 3
! eps2d = 3e-005 3e-005 eps3d = 0.0001 0.0001
! max_factor = 2.5 extract_factor = 0.2 far_factor=0.5 eps_thin = 0.0001 eps_far = 0.01
! max_pts = 12 max_pts_inc_st = 1 max_pts_inc_nr = 1 rate_pts = 2.5 next_ratio = 1.5 max_images=500000
! auto_fixed_lambda = 0 increase_rate = 0.1 min_lambda = 100 max_lambda = 1e+006
