! Zeland S-Parameters Output Version 2.0  
# GHZ S MA R 50
! Nport = 1
!

 7.0000000000e-001  9.4585639029e-001 2.4932159758e+000
 7.2500000000e-001  9.1702477029e-001 -1.2546738383e+001
 7.5000000000e-001  8.6229449752e-001 -3.1339007832e+001
 7.7500000000e-001  7.6329504812e-001 -5.5523229654e+001
 8.0000000000e-001  6.0571945289e-001 -8.7104255619e+001
 8.2500000000e-001  4.1192642928e-001 -1.2908780267e+002
 8.5000000000e-001  2.6109226657e-001 1.7199729901e+002
 8.7500000000e-001  2.2329207681e-001 1.0055781886e+002
 9.0000000000e-001  2.4456044039e-001 3.7931658925e+001
 9.2500000000e-001  2.7510978314e-001 -2.4253217768e+001
 9.5000000000e-001  3.5801436509e-001 -8.9848665308e+001
 9.7500000000e-001  5.0236034800e-001 -1.4452420627e+002
 1.0000000000e+000  6.3452468659e-001 1.7601444240e+002
 1.0250000000e+000  7.2072610125e-001 1.4829974128e+002
 1.0500000000e+000  7.7183137614e-001 1.2846939715e+002
 1.0750000000e+000  8.0289956618e-001 1.1372011995e+002
 1.1000000000e+000  8.2299648763e-001 1.0228664309e+002
 1.1250000000e+000  8.3684010324e-001 9.3092256237e+001
 1.1500000000e+000  8.4688744507e-001 8.5468824259e+001
 1.1750000000e+000  8.5447558247e-001 7.8987595078e+001
 1.2000000000e+000  8.6037275922e-001 7.3363251966e+001
! acs =  6 12 5 8 3 5 4
! insert_points = 3
! eps2d = 3e-005 3e-005 eps3d = 0.0001 0.0001
! max_factor = 2.5 extract_factor = 0.2 far_factor=0.5 eps_thin = 0.0001 eps_far = 0.01
! max_pts = 12 max_pts_inc_st = 1 max_pts_inc_nr = 1 rate_pts = 2.5 next_ratio = 1.5 max_images=500000
! auto_fixed_lambda = 0 increase_rate = 0.1 min_lambda = 100 max_lambda = 1e+006
