! 
# GHZ S MA R 50
! Nport = 1
3.00000000000000e-001 9.83780293515744e-001 1.64637191849962e+002
4.05000000000000e-001 9.76347290889090e-001 1.20708330270544e+002
5.10000000000000e-001 9.72934534895062e-001 8.52333910498235e+001
6.15000000000000e-001 9.70141463786448e-001 5.16113647085310e+001
7.20000000000000e-001 9.36968625140896e-001 7.58599543813268e+000
8.25000000000000e-001 5.74077274656468e-001 -9.26230177372444e+001
9.30000000000000e-001 3.48734722219646e-001 6.39060656001582e+001
1.03500000000000e+000 5.66740408000752e-001 -1.69689523438731e+002
1.14000000000000e+000 8.23780379101272e-001 1.04828479408968e+002
1.24500000000000e+000 8.62858388321234e-001 7.49101478331984e+001
1.35000000000000e+000 8.72818944446862e-001 5.71734340982163e+001
1.45500000000000e+000 8.46213401386057e-001 4.55562861993080e+001
1.56000000000000e+000 8.68010789074119e-001 3.68428657859656e+001
1.66500000000000e+000 8.70782338246288e-001 2.82313967254746e+001
1.77000000000000e+000 8.63314426222551e-001 2.05729802662560e+001
1.87500000000000e+000 8.44508227488393e-001 1.37180256589787e+001
1.98000000000000e+000 8.11100890877628e-001 8.33581833156145e+000
2.08500000000000e+000 7.92682027147368e-001 6.45882517387253e+000
2.19000000000000e+000 8.45541619080176e-001 2.99605634801217e+000
2.29500000000000e+000 8.83930712937526e-001 -4.78113019195679e+000

! acs =  6 12 5 8 3 5 4
! insert_points = 3
! eps2d = 3e-005 3e-005 eps3d = 0.0001 0.0001
! max_factor = 2.5 extract_factor = 0.2 far_factor=0.5 eps_thin = 0.0001 eps_far = 0.01
! max_pts = 12 max_pts_inc_st = 1 max_pts_inc_nr = 1 rate_pts = 2.5 next_ratio = 1.5 max_images=500000
! auto_fixed_lambda = 0 increase_rate = 0.1 min_lambda = 100 max_lambda = 1e+006
