! 
# GHZ S MA R 50
! Nport = 1
3.00000000000000e-001 9.71242955528081e-001 1.46949564336477e+002
4.00000000000000e-001 9.66073341286292e-001 9.76574249886855e+001
5.00000000000000e-001 9.67944303948622e-001 6.34306400338898e+001
6.00000000000000e-001 9.69279883348809e-001 3.42156541551184e+001
7.00000000000000e-001 9.27485331527294e-001 -2.90302880094811e+000
8.00000000000000e-001 3.26809944560252e-001 -8.55811642955589e+001
9.00000000000000e-001 2.84797985321564e-001 -4.62893503730859e+001
1.00000000000000e+000 6.88312846950394e-001 1.16733855775334e+002
1.10000000000000e+000 8.25307802095239e-001 6.84066309286036e+001
1.20000000000000e+000 8.60112164882698e-001 4.82072520266796e+001
1.30000000000000e+000 8.72632935022109e-001 3.55006593837712e+001
1.40000000000000e+000 8.69501792644861e-001 2.65909729913652e+001
1.50000000000000e+000 8.75090451200693e-001 1.94135294035097e+001
1.60000000000000e+000 8.73247810400909e-001 1.29204247354237e+001
1.70000000000000e+000 8.63622936252319e-001 7.17585247618054e+000
1.80000000000000e+000 8.45950272362203e-001 2.38055000041166e+000
1.90000000000000e+000 8.30130900981087e-001 -7.92492766348968e-001
2.00000000000000e+000 8.47688723511415e-001 -3.19275585091291e+000
2.10000000000000e+000 8.86480296589489e-001 -8.29632768032726e+000
2.20000000000000e+000 9.02970301046195e-001 -1.56894222928832e+001
2.30000000000000e+000 8.88275030475520e-001 -2.46822614886348e+001

! acs =  6 12 5 8 3 5 4
! insert_points = 3
! eps2d = 3e-005 3e-005 eps3d = 0.0001 0.0001
! max_factor = 2.5 extract_factor = 0.2 far_factor=0.5 eps_thin = 0.0001 eps_far = 0.01
! max_pts = 12 max_pts_inc_st = 1 max_pts_inc_nr = 1 rate_pts = 2.5 next_ratio = 1.5 max_images=500000
! auto_fixed_lambda = 0 increase_rate = 0.1 min_lambda = 100 max_lambda = 1e+006
