! 
# GHZ S MA R 50
! Nport = 1
7.00000000000000e-001 9.63475958327125e-001 1.53684231932313e+002
8.26315789500000e-001 9.52504724335293e-001 1.29748663308623e+002
9.52631579000000e-001 9.42719156145626e-001 1.08120351300187e+002
1.07894736850000e+000 9.33105156720010e-001 8.75292652576225e+001
1.20526315800000e+000 9.19181773502668e-001 6.61116454525437e+001
1.33157894750000e+000 8.83392128936739e-001 4.02728118663055e+001
1.45789473700000e+000 7.43754185517815e-001 7.55793854262585e-001
1.58421052650000e+000 3.08169584447384e-001 -7.31800511698421e+001
1.71052631600000e+000 1.07216175140975e-001 -1.11918783820046e+002
1.83684210550000e+000 7.59813768210085e-001 1.23078323434559e+002
1.96315789500000e+000 7.81746582551499e-001 8.66014855323340e+001
2.08947368450000e+000 7.98269135677787e-001 6.81300768846121e+001
2.21578947400000e+000 8.08547977062587e-001 5.51241956590280e+001
2.34210526350000e+000 8.13886379032580e-001 4.46716286661336e+001
2.46842105300000e+000 8.14937329149077e-001 3.56281416341518e+001
2.59473684250000e+000 8.10873742195332e-001 2.74210082522153e+001
2.72105263200000e+000 7.98664238375911e-001 1.98643286416866e+001
2.84736842150000e+000 7.82428764245878e-001 1.34705791765724e+001
2.97368421100000e+000 7.77122935514740e-001 6.78589658982389e+000
3.10000000050000e+000 7.52546728207924e-001 -1.06732217428927e+000

! acs =  6 12 5 8 3 5 4
! insert_points = 3
! eps2d = 3e-005 3e-005 eps3d = 0.0001 0.0001
! max_factor = 2.5 extract_factor = 0.2 far_factor=0.5 eps_thin = 0.0001 eps_far = 0.01
! max_pts = 12 max_pts_inc_st = 1 max_pts_inc_nr = 1 rate_pts = 2.5 next_ratio = 1.5 max_images=500000
! auto_fixed_lambda = 0 increase_rate = 0.1 min_lambda = 100 max_lambda = 1e+006
