! 
# GHZ S MA R 50
! Nport = 1
6.00000000000000e-001 9.44548542615562e-001 6.19499857389902e+001
7.05263157900000e-001 9.39434120630714e-001 3.42993912181369e+001
8.10526315800000e-001 8.75250722091259e-001 -6.76570978850448e+000
9.15789473700000e-001 5.70120185196605e-001 -1.33549701765822e+002
1.02105263160000e+000 7.46379398289447e-001 8.60480196258424e+001
1.12631578950000e+000 8.13492822967378e-001 5.70092186250312e+001
1.23157894740000e+000 8.43593872419207e-001 4.20435670194178e+001
1.33684210530000e+000 8.56644851672649e-001 3.16959485943247e+001
1.44210526320000e+000 8.60298883912089e-001 2.34807785732941e+001
1.54736842110000e+000 8.55311424615786e-001 1.64902800343618e+001
1.65263157900000e+000 8.45742524446652e-001 1.05229956184090e+001
1.75789473690000e+000 8.30117899703538e-001 4.39766384878814e+000
1.86315789480000e+000 7.82169085351655e-001 -1.39324479466820e+000
1.96842105270000e+000 6.98425799957050e-001 -2.97781601048475e+000
2.07368421060000e+000 6.90900707387654e-001 2.47022365504690e+000
2.17894736850000e+000 7.67539020202609e-001 1.86574100049136e+000
2.28421052640000e+000 8.13480316177945e-001 -3.06148052139688e+000
2.38947368430000e+000 8.25277136963948e-001 -8.63676681128655e+000
2.49473684220000e+000 8.06281202957375e-001 -1.41855037469634e+001
2.60000000010000e+000 7.46583711017957e-001 -1.82248029789354e+001

! acs =  6 12 5 8 3 5 4
! insert_points = 3
! eps2d = 3e-005 3e-005 eps3d = 0.0001 0.0001
! max_factor = 2.5 extract_factor = 0.2 far_factor=0.5 eps_thin = 0.0001 eps_far = 0.01
! max_pts = 12 max_pts_inc_st = 1 max_pts_inc_nr = 1 rate_pts = 2.5 next_ratio = 1.5 max_images=500000
! auto_fixed_lambda = 0 increase_rate = 0.1 min_lambda = 100 max_lambda = 1e+006
