! 
# GHZ S MA R 50
! Nport = 1
2.80000000000000e+000 9.00060414948080e-001 4.68340757155884e+001
2.90526315790000e+000 8.99710231991489e-001 4.01986687439494e+001
3.01052631580000e+000 8.97619222191274e-001 3.36824094191475e+001
3.11578947370000e+000 8.92823941566528e-001 2.71171488786472e+001
3.22105263160000e+000 8.83682528349023e-001 2.03047503928088e+001
3.32631578950000e+000 8.67302307814274e-001 1.29991646679245e+001
3.43157894740000e+000 8.38492022106402e-001 4.89347396659656e+000
3.53684210530000e+000 7.88065015332435e-001 -4.34900174749078e+000
3.64210526320000e+000 7.01334639531054e-001 -1.48648847944575e+001
3.74736842110000e+000 5.62462930237685e-001 -2.56353707906414e+001
3.85263157900000e+000 3.79754606811217e-001 -3.12809812575909e+001
3.95789473690000e+000 2.36844006807451e-001 -1.60193705491522e+001
4.06315789480000e+000 2.41637315834011e-001 9.82040074386577e+000
4.16842105270000e+000 2.69622635379834e-001 1.10931465754234e+001
4.27368421060000e+000 1.73976829621214e-001 6.82928144609942e+000
4.37894736850000e+000 1.99690687610356e-001 9.11793293156604e+001
4.48421052640000e+000 4.93997208465989e-001 7.81674135486593e+001
4.58947368430000e+000 6.46091854792320e-001 6.11104899662310e+001
4.69473684220000e+000 7.18069118967670e-001 4.96908250532568e+001
4.80000000010000e+000 7.57658548378181e-001 4.16494353148555e+001

! acs =  6 12 5 8 3 5 4
! insert_points = 3
! eps2d = 3e-005 3e-005 eps3d = 0.0001 0.0001
! max_factor = 2.5 extract_factor = 0.2 far_factor=0.5 eps_thin = 0.0001 eps_far = 0.01
! max_pts = 12 max_pts_inc_st = 1 max_pts_inc_nr = 1 rate_pts = 2.5 next_ratio = 1.5 max_images=500000
! auto_fixed_lambda = 0 increase_rate = 0.1 min_lambda = 100 max_lambda = 1e+006
