! 
# GHZ S MA R 50
! Nport = 1
2.80000000000000e+000 9.09383391616524e-001 4.82721385394108e+001
2.90526315790000e+000 9.07557158559208e-001 4.10458271816877e+001
3.01052631580000e+000 9.03860099888362e-001 3.38470965115469e+001
3.11578947370000e+000 8.97225159663420e-001 2.64955905293498e+001
3.22105263160000e+000 8.85888222735210e-001 1.87718108386539e+001
3.32631578950000e+000 8.66840638520157e-001 1.03955461107387e+001
3.43157894740000e+000 8.34869451697408e-001 1.00315714334272e+000
3.53684210530000e+000 7.81073436607205e-001 -9.85233935882680e+000
3.64210526320000e+000 6.91542399965087e-001 -2.25833889094323e+001
3.74736842110000e+000 5.50172983212363e-001 -3.70151864718892e+001
3.85263157900000e+000 3.55142518907989e-001 -5.02871526828359e+001
3.95789473690000e+000 1.55698764794654e-001 -4.46385475104774e+001
4.06315789480000e+000 1.41813710960963e-001 1.53964243967078e+001
4.16842105270000e+000 2.28638300331844e-001 1.47019672075950e+001
4.27368421060000e+000 2.05000420714219e-001 -1.51265316365290e+001
4.37894736850000e+000 9.02577147826097e-002 -1.45719558411020e+002
4.48421052640000e+000 3.66553014460023e-001 1.23496597249256e+002
4.58947368430000e+000 5.60075397492608e-001 9.15598038363474e+001
4.69473684220000e+000 6.57370206051377e-001 7.31167167373158e+001
4.80000000010000e+000 7.11167062514901e-001 6.10118047463367e+001

! acs =  6 12 5 8 3 5 4
! insert_points = 3
! eps2d = 3e-005 3e-005 eps3d = 0.0001 0.0001
! max_factor = 2.5 extract_factor = 0.2 far_factor=0.5 eps_thin = 0.0001 eps_far = 0.01
! max_pts = 12 max_pts_inc_st = 1 max_pts_inc_nr = 1 rate_pts = 2.5 next_ratio = 1.5 max_images=500000
! auto_fixed_lambda = 0 increase_rate = 0.1 min_lambda = 100 max_lambda = 1e+006
