! 
# GHZ S MA R 50
! Nport = 1
2.80000000000000e+000 9.15795842399781e-001 5.77953339959448e+001
2.90526315790000e+000 9.13205840971402e-001 5.00966012730818e+001
3.01052631580000e+000 9.09043419396731e-001 4.23838148829564e+001
3.11578947370000e+000 9.02322988718240e-001 3.44768888913700e+001
3.22105263160000e+000 8.91423247646299e-001 2.61476972212680e+001
3.32631578950000e+000 8.73572773254707e-001 1.70925822393252e+001
3.43157894740000e+000 8.43911476338022e-001 6.89379359331586e+000
3.53684210530000e+000 7.93904869530086e-001 -5.02295140639631e+000
3.64210526320000e+000 7.09388043794544e-001 -1.93885554979372e+001
3.74736842110000e+000 5.71296967759261e-001 -3.68870407233552e+001
3.85263157900000e+000 3.68479175255438e-001 -5.74018017086693e+001
3.95789473690000e+000 1.25244886329707e-001 -7.72286098237336e+001
4.06315789480000e+000 1.00762203599284e-001 6.59271498140062e+001
4.16842105270000e+000 2.56241159374129e-001 4.53149602537978e+001
4.27368421060000e+000 3.17535644112560e-001 1.63923077547604e+001
4.37894736850000e+000 2.53489950317688e-001 -3.23878902107311e+001
4.48421052640000e+000 2.18098717018445e-001 -1.50856845277545e+002
4.58947368430000e+000 4.55475358089293e-001 1.34178538202745e+002
4.69473684220000e+000 6.10967917222243e-001 1.01058785020211e+002
4.80000000010000e+000 6.89981360130967e-001 8.19613220223908e+001

! acs =  6 12 5 8 3 5 4
! insert_points = 3
! eps2d = 3e-005 3e-005 eps3d = 0.0001 0.0001
! max_factor = 2.5 extract_factor = 0.2 far_factor=0.5 eps_thin = 0.0001 eps_far = 0.01
! max_pts = 12 max_pts_inc_st = 1 max_pts_inc_nr = 1 rate_pts = 2.5 next_ratio = 1.5 max_images=500000
! auto_fixed_lambda = 0 increase_rate = 0.1 min_lambda = 100 max_lambda = 1e+006
