! 
# GHZ S MA R 50
! Nport = 1
3.00000000000000e+000 8.95450045851525e-001 4.36577709736446e+001
3.10526315790000e+000 8.94092658391806e-001 3.71194791064258e+001
3.21052631580000e+000 8.90646041752927e-001 3.06023171070633e+001
3.31578947370000e+000 8.83984237475493e-001 2.39407870359002e+001
3.42105263160000e+000 8.72234820688585e-001 1.69348944460325e+001
3.52631578950000e+000 8.52210362802776e-001 9.33358666314912e+000
3.63157894740000e+000 8.18449734144997e-001 8.23967856520202e-001
3.73684210530000e+000 7.61871947819332e-001 -8.93951983139772e+000
3.84210526320000e+000 6.69075861187675e-001 -2.01483543294148e+001
3.94736842110000e+000 5.26695553214872e-001 -3.21406069857799e+001
4.05263157900000e+000 3.38920441969929e-001 -4.09940538805311e+001
4.15789473690000e+000 1.61831547506104e-001 -2.76095953965316e+001
4.26315789480000e+000 1.58314748423663e-001 2.73747925621731e+001
4.36842105270000e+000 2.47264433222167e-001 3.78385959083965e+001
4.47368421060000e+000 2.76315264503188e-001 3.44785363548262e+001
4.57894736850000e+000 2.28703156120152e-001 4.37950353973751e+001
4.68421052640000e+000 3.27448200995938e-001 7.54338886572708e+001
4.78947368430000e+000 5.45719003696218e-001 6.85956180631487e+001
4.89473684220000e+000 6.67308974743264e-001 5.60982325349206e+001
5.00000000010000e+000 7.26938501460071e-001 4.67024347845819e+001

! acs =  6 12 5 8 3 5 4
! insert_points = 3
! eps2d = 3e-005 3e-005 eps3d = 0.0001 0.0001
! max_factor = 2.5 extract_factor = 0.2 far_factor=0.5 eps_thin = 0.0001 eps_far = 0.01
! max_pts = 12 max_pts_inc_st = 1 max_pts_inc_nr = 1 rate_pts = 2.5 next_ratio = 1.5 max_images=500000
! auto_fixed_lambda = 0 increase_rate = 0.1 min_lambda = 100 max_lambda = 1e+006
