! 
# GHZ S MA R 50
! Nport = 1
3.00000000000000e+000 9.02138212804563e-001 5.41738803695738e+001
3.10526315790000e+000 9.00718561587251e-001 4.72216408544670e+001
3.21052631580000e+000 8.97586007489585e-001 4.02508338916760e+001
3.31578947370000e+000 8.91586597633013e-001 3.30742248528605e+001
3.42105263160000e+000 8.80689394326779e-001 2.54476153195774e+001
3.52631578950000e+000 8.61162544200582e-001 1.70371840862010e+001
3.63157894740000e+000 8.25965339124538e-001 7.38292356915361e+000
3.73684210530000e+000 7.61997964848666e-001 -4.08972702449333e+000
3.84210526320000e+000 6.47824043029643e-001 -1.77583650949885e+001
3.94736842110000e+000 4.63017201575178e-001 -3.21918658895866e+001
4.05263157900000e+000 2.33174759244292e-001 -3.62347605334292e+001
4.15789473690000e+000 1.40182633503267e-001 1.73841622265097e+001
4.26315789480000e+000 2.41217245776685e-001 3.49116409357963e+001
4.36842105270000e+000 2.59331707332305e-001 2.24031582203889e+001
4.47368421060000e+000 9.20317407747679e-002 2.20225084102446e+001
4.57894736850000e+000 3.26412195095307e-001 1.10901385164579e+002
4.68421052640000e+000 5.94919589736886e-001 8.44820868024004e+001
4.78947368430000e+000 7.06814203808437e-001 6.69688450369611e+001
4.89473684220000e+000 7.58021152957560e-001 5.57118064479688e+001
5.00000000010000e+000 7.86513806857304e-001 4.76999621348520e+001

! acs =  6 12 5 8 3 5 4
! insert_points = 3
! eps2d = 3e-005 3e-005 eps3d = 0.0001 0.0001
! max_factor = 2.5 extract_factor = 0.2 far_factor=0.5 eps_thin = 0.0001 eps_far = 0.01
! max_pts = 12 max_pts_inc_st = 1 max_pts_inc_nr = 1 rate_pts = 2.5 next_ratio = 1.5 max_images=500000
! auto_fixed_lambda = 0 increase_rate = 0.1 min_lambda = 100 max_lambda = 1e+006
