! 
# GHZ S MA R 50
! Nport = 1
3.20000000000000e+000 9.10960666129066e-001 5.14057236283114e+001
3.30526315790000e+000 9.07749342740708e-001 4.37955904265633e+001
3.41052631580000e+000 9.02654594501744e-001 3.59880580351318e+001
3.51578947370000e+000 8.94578788472848e-001 2.77996976281662e+001
3.62105263160000e+000 8.81768521267696e-001 1.89929924021277e+001
3.72631578950000e+000 8.61370923005305e-001 9.25148414591192e+000
3.83157894740000e+000 8.28742721665798e-001 -1.85206757178537e+000
3.93684210530000e+000 7.76587202879767e-001 -1.48872788969699e+001
4.04210526320000e+000 6.94674992851021e-001 -3.05745636939834e+001
4.14736842110000e+000 5.72710137635008e-001 -4.97508398779976e+001
4.25263157900000e+000 4.10299427804871e-001 -7.35085719176761e+001
4.35789473690000e+000 2.31207047730758e-001 -1.05225772774998e+002
4.46315789480000e+000 9.34669405245996e-002 -1.66196118740804e+002
4.56842105270000e+000 8.52265136926524e-002 9.53729696486093e+001
4.67368421060000e+000 5.49934629229011e-002 2.94701538957753e+001
4.77894736850000e+000 1.59494608619125e-001 -1.61020692656554e+002
4.88421052640000e+000 4.42807486996553e-001 1.46996706626250e+002
4.98947368430000e+000 6.05091234996073e-001 1.14028331247526e+002
5.09473684220000e+000 6.79716388158163e-001 9.36599798311383e+001
5.20000000010000e+000 7.20284937920143e-001 7.99552536938356e+001

! acs =  6 12 5 8 3 5 4
! insert_points = 3
! eps2d = 3e-005 3e-005 eps3d = 0.0001 0.0001
! max_factor = 2.5 extract_factor = 0.2 far_factor=0.5 eps_thin = 0.0001 eps_far = 0.01
! max_pts = 12 max_pts_inc_st = 1 max_pts_inc_nr = 1 rate_pts = 2.5 next_ratio = 1.5 max_images=500000
! auto_fixed_lambda = 0 increase_rate = 0.1 min_lambda = 100 max_lambda = 1e+006
