! 
# GHZ S MA R 50
! Nport = 1
3.20000000000000e+000 9.02933197350687e-001 4.54535015981311e+001
3.30526315790000e+000 9.00976990670512e-001 3.86074930020810e+001
3.41052631580000e+000 8.97243022196395e-001 3.17138899559109e+001
3.51578947370000e+000 8.90806994227626e-001 2.46249346208620e+001
3.62105263160000e+000 8.80216151676445e-001 1.71606213883330e+001
3.72631578950000e+000 8.63138879434590e-001 9.09407127051930e+000
3.83157894740000e+000 8.35806623449368e-001 1.35560855284093e-001
3.93684210530000e+000 7.92235459768647e-001 -1.00753788238935e+001
4.04210526320000e+000 7.23566686756094e-001 -2.19393922195850e+001
4.14736842110000e+000 6.19011403780131e-001 -3.57524977794613e+001
4.25263157900000e+000 4.71726354440448e-001 -5.13083438418957e+001
4.35789473690000e+000 2.90931425559475e-001 -6.69462764485704e+001
4.46315789480000e+000 1.10397038062457e-001 -7.37072457951720e+001
4.56842105270000e+000 5.78697328644380e-002 2.52965666823380e+001
4.67368421060000e+000 1.21171662030510e-001 2.84330078896034e+001
4.77894736850000e+000 6.88538191297868e-002 5.84828752972935e+000
4.88421052640000e+000 1.49987787819021e-001 1.49135888298527e+002
4.98947368430000e+000 4.13433860751514e-001 1.14671681166208e+002
5.09473684220000e+000 5.72237687766729e-001 8.99106405735882e+001
5.20000000010000e+000 6.53925860054570e-001 7.37784810710387e+001

! acs =  6 12 5 8 3 5 4
! insert_points = 3
! eps2d = 3e-005 3e-005 eps3d = 0.0001 0.0001
! max_factor = 2.5 extract_factor = 0.2 far_factor=0.5 eps_thin = 0.0001 eps_far = 0.01
! max_pts = 12 max_pts_inc_st = 1 max_pts_inc_nr = 1 rate_pts = 2.5 next_ratio = 1.5 max_images=500000
! auto_fixed_lambda = 0 increase_rate = 0.1 min_lambda = 100 max_lambda = 1e+006
