! 
# GHZ S MA R 50
! Nport = 1
3.20000000000000e+000 8.94518087722073e-001 4.07747718369046e+001
3.30526315790000e+000 8.93192854327219e-001 3.45967505164437e+001
3.41052631580000e+000 8.90030650850998e-001 2.84526177475432e+001
3.51578947370000e+000 8.84176618311328e-001 2.22162892097746e+001
3.62105263160000e+000 8.74291556105137e-001 1.57421987562959e+001
3.72631578950000e+000 8.58240034799338e-001 8.85695692210326e+000
3.83157894740000e+000 8.32598882547935e-001 1.35452479456494e+000
3.93684210530000e+000 7.91976571464035e-001 -6.99148885665799e+000
4.04210526320000e+000 7.28434605232782e-001 -1.63577890831833e+001
4.14736842110000e+000 6.32306080493674e-001 -2.66343698878869e+001
4.25263157900000e+000 4.97599731660879e-001 -3.67453674363904e+001
4.35789473690000e+000 3.35179723893243e-001 -4.26925036737106e+001
4.46315789480000e+000 1.93147966290991e-001 -3.12900565923421e+001
4.56842105270000e+000 1.68620723488609e-001 5.45067485233419e+000
4.67368421060000e+000 2.23238707682542e-001 1.83630804053765e+001
4.77894736850000e+000 2.34865570373601e-001 1.40195140095703e+001
4.88421052640000e+000 1.50107010970256e-001 1.54849797454130e+001
4.98947368430000e+000 1.75939356806985e-001 8.59220683314077e+001
5.09473684220000e+000 4.12497689421836e-001 8.17231676477749e+001
5.20000000010000e+000 5.68510328427310e-001 6.65319755976037e+001

! acs =  6 12 5 8 3 5 4
! insert_points = 3
! eps2d = 3e-005 3e-005 eps3d = 0.0001 0.0001
! max_factor = 2.5 extract_factor = 0.2 far_factor=0.5 eps_thin = 0.0001 eps_far = 0.01
! max_pts = 12 max_pts_inc_st = 1 max_pts_inc_nr = 1 rate_pts = 2.5 next_ratio = 1.5 max_images=500000
! auto_fixed_lambda = 0 increase_rate = 0.1 min_lambda = 100 max_lambda = 1e+006
