! 
# GHZ S MA R 50
! Nport = 1
3.20000000000000e+000 8.98228244369993e-001 5.87105909107570e+001
3.31739130430000e+000 8.98207557373732e-001 5.11723970280349e+001
3.43478260860000e+000 8.97346340286352e-001 4.38682275630624e+001
3.55217391290000e+000 8.95176723796353e-001 3.66737146287157e+001
3.66956521720000e+000 8.91029025002425e-001 2.94532743493714e+001
3.78695652150000e+000 8.83895886090915e-001 2.20519047710166e+001
3.90434782580000e+000 8.72213434975215e-001 1.42843707124473e+001
4.02173913010000e+000 8.53510846762630e-001 5.92206383447810e+000
4.13913043440000e+000 8.23879856397889e-001 -3.31959993483965e+000
4.25652173870000e+000 7.77303824372398e-001 -1.37824934116947e+001
4.37391304300000e+000 7.05278211040275e-001 -2.58253692038286e+001
4.49130434730000e+000 5.98210438642236e-001 -3.96747443200873e+001
4.60869565160000e+000 4.51298613517629e-001 -5.50605604523209e+001
4.72608695590000e+000 2.74741647919004e-001 -7.03776064106170e+001
4.84347826020000e+000 9.91960630060491e-002 -7.66943873530141e+001
4.96086956450000e+000 6.15534704667580e-002 3.33740843116633e+001
5.07826086880000e+000 1.37486272688353e-001 3.26307983295597e+001
5.19565217310000e+000 1.15212865024405e-001 1.35436433089487e+001
5.31304347740000e+000 6.31383582862978e-002 1.41171824094242e+002
5.43043478170000e+000 3.26261375312965e-001 1.17552750543536e+002
5.54782608600000e+000 5.12988864555292e-001 9.17343682693940e+001
5.66521739030000e+000 6.12687097234794e-001 7.42886489999122e+001
5.78260869460000e+000 6.69070878328316e-001 6.22494784531833e+001
5.89999999890000e+000 7.04985235723089e-001 5.33315311020829e+001

! acs =  6 12 5 8 3 5 4
! insert_points = 3
! eps2d = 3e-005 3e-005 eps3d = 0.0001 0.0001
! max_factor = 2.5 extract_factor = 0.2 far_factor=0.5 eps_thin = 0.0001 eps_far = 0.01
! max_pts = 12 max_pts_inc_st = 1 max_pts_inc_nr = 1 rate_pts = 2.5 next_ratio = 1.5 max_images=500000
! auto_fixed_lambda = 0 increase_rate = 0.1 min_lambda = 100 max_lambda = 1e+006
