! 
# GHZ S MA R 50
! Nport = 1
3.40000000000000e+000 9.06868012643141e-001 5.17976889272369e+001
3.50526315790000e+000 9.04362911900089e-001 4.46587170559953e+001
3.61052631580000e+000 9.00524814399886e-001 3.74388939051945e+001
3.71578947370000e+000 8.94685466437113e-001 3.00174096573041e+001
3.82105263160000e+000 8.85859285516603e-001 2.22475260293504e+001
3.92631578950000e+000 8.72565839508692e-001 1.39461564954203e+001
4.03157894740000e+000 8.52565041548992e-001 4.88054589851191e+000
4.13684210530000e+000 8.22498014909791e-001 -5.24693242725554e+000
4.24210526320000e+000 7.77518814670240e-001 -1.68117954321392e+001
4.34736842110000e+000 7.11288463197463e-001 -3.02697360449287e+001
4.45263157900000e+000 6.17297409582813e-001 -4.61447799019027e+001
4.55789473690000e+000 4.92934743374092e-001 -6.50691358865024e+001
4.66315789480000e+000 3.46099206391038e-001 -8.82608531605925e+001
4.76842105270000e+000 2.00268794696228e-001 -1.20172136480503e+002
4.87368421060000e+000 1.01349291110955e-001 -1.79093711525682e+002
4.97894736850000e+000 9.89350719632318e-002 1.04136391729775e+002
5.08421052640000e+000 9.09186547675932e-002 5.69282614595992e+001
5.18947368430000e+000 2.88477255078597e-002 -1.31380284193931e+002
5.29473684220000e+000 2.64990436414589e-001 1.66838382827166e+002
5.40000000010000e+000 4.79655615094869e-001 1.30329741604431e+002

! acs =  6 12 5 8 3 5 4
! insert_points = 3
! eps2d = 3e-005 3e-005 eps3d = 0.0001 0.0001
! max_factor = 2.5 extract_factor = 0.2 far_factor=0.5 eps_thin = 0.0001 eps_far = 0.01
! max_pts = 12 max_pts_inc_st = 1 max_pts_inc_nr = 1 rate_pts = 2.5 next_ratio = 1.5 max_images=500000
! auto_fixed_lambda = 0 increase_rate = 0.1 min_lambda = 100 max_lambda = 1e+006
