! 
# GHZ S MA R 50
! Nport = 1
3.40000000000000e+000 8.92353805889731e-001 3.84716766218728e+001
3.52500000000000e+000 8.91431180209621e-001 3.18246618838874e+001
3.65000000000000e+000 8.88728597797517e-001 2.53482546186592e+001
3.77500000000000e+000 8.83551138339086e-001 1.89176222920427e+001
3.90000000000000e+000 8.74860702015422e-001 1.24020353461393e+001
4.02500000000000e+000 8.61082000953492e-001 5.65918592562412e+000
4.15000000000000e+000 8.39814156442104e-001 -1.46786450744749e+000
4.27500000000000e+000 8.07440518328419e-001 -9.14463353405717e+000
4.40000000000000e+000 7.58738816045439e-001 -1.75126028687236e+001
4.52500000000000e+000 6.86945701616772e-001 -2.65860195644385e+001
4.65000000000000e+000 5.85507654057772e-001 -3.59721376904271e+001
4.77500000000000e+000 4.53560638592447e-001 -4.41436284322925e+001
4.90000000000000e+000 3.06451578062120e-001 -4.63523326045591e+001
5.02500000000000e+000 1.93914656440344e-001 -2.96518332676271e+001
5.15000000000000e+000 1.96559134926246e-001 2.66993098457557e+000
5.27500000000000e+000 2.66872025323983e-001 1.26420389690899e+001
5.40000000000000e+000 3.19213251313959e-001 8.32327176974187e+000
5.52500000000000e+000 3.20123284577728e-001 -1.38466703369243e+000
5.65000000000000e+000 2.46342277808954e-001 -1.15136419567120e+001
5.77500000000000e+000 1.13079843003628e-001 6.06710983365669e+000
5.90000000000000e+000 1.96681880066943e-001 7.09356514280357e+001
6.02500000000000e+000 3.73590896776356e-001 6.69285245254427e+001
6.15000000000000e+000 5.00919425928627e-001 5.63823987453301e+001
6.27500000000000e+000 5.84222248926261e-001 4.71542570921650e+001
6.40000000000000e+000 6.39627251828491e-001 3.96517596327885e+001

! acs =  6 12 5 8 3 5 4
! insert_points = 3
! eps2d = 3e-005 3e-005 eps3d = 0.0001 0.0001
! max_factor = 2.5 extract_factor = 0.2 far_factor=0.5 eps_thin = 0.0001 eps_far = 0.01
! max_pts = 12 max_pts_inc_st = 1 max_pts_inc_nr = 1 rate_pts = 2.5 next_ratio = 1.5 max_images=500000
! auto_fixed_lambda = 0 increase_rate = 0.1 min_lambda = 100 max_lambda = 1e+006
