! 
# GHZ S MA R 50
! Nport = 1
3.60000000000000e+000 9.02955824025714e-001 4.63651480191294e+001
3.74583333330000e+000 8.97326789270066e-001 3.64297171685198e+001
3.89166666660000e+000 8.87742876621906e-001 2.60729227338732e+001
4.03749999990000e+000 8.71439149752910e-001 1.49156892827541e+001
4.18333333320000e+000 8.43707627161838e-001 2.44437169945963e+000
4.32916666650000e+000 7.96659331957536e-001 -1.20471404774523e+001
4.47499999980000e+000 7.18228862858991e-001 -2.95070266008013e+001
4.62083333310000e+000 5.94621131169543e-001 -5.11452505547032e+001
4.76666666640000e+000 4.23071927773048e-001 -7.87358885870923e+001
4.91249999970000e+000 2.34834872053531e-001 -1.17958363970964e+002
5.05833333300000e+000 1.19069029449020e-001 1.66465137699571e+002
5.20416666630000e+000 1.34680567373202e-001 8.66071621928172e+001
5.34999999960000e+000 8.19108782199636e-002 2.82227494846479e+001
5.49583333290000e+000 1.86354623303286e-001 -1.77859142857159e+002
5.64166666620000e+000 4.77102714816296e-001 1.30386520962217e+002
5.78749999950000e+000 6.16218553873627e-001 1.00070493973566e+002
5.93333333280000e+000 6.79976468512143e-001 8.15026181741175e+001
6.07916666610000e+000 7.16192623304405e-001 6.87189690188438e+001
6.22499999940000e+000 7.40173527076729e-001 5.90618883293731e+001
6.37083333270000e+000 7.57455062907128e-001 5.12885788296828e+001
6.51666666600000e+000 7.70483236813959e-001 4.47495749665555e+001
6.66249999930000e+000 7.80526742228528e-001 3.90704874867153e+001
6.80833333260000e+000 7.88318995412758e-001 3.40179192133205e+001
6.95416666590000e+000 7.94311818207509e-001 2.94369893732583e+001
7.09999999920000e+000 7.98790142640563e-001 2.52195048280104e+001

! acs =  6 12 5 8 3 5 4
! insert_points = 3
! eps2d = 3e-005 3e-005 eps3d = 0.0001 0.0001
! max_factor = 2.5 extract_factor = 0.2 far_factor=0.5 eps_thin = 0.0001 eps_far = 0.01
! max_pts = 12 max_pts_inc_st = 1 max_pts_inc_nr = 1 rate_pts = 2.5 next_ratio = 1.5 max_images=500000
! auto_fixed_lambda = 0 increase_rate = 0.1 min_lambda = 100 max_lambda = 1e+006
