! 
# GHZ S MA R 50
! Nport = 1
3.60000000000000e+000 8.88597116161830e-001 3.25484727009795e+001
3.74583333330000e+000 8.83557113639856e-001 2.43566074322412e+001
3.89166666660000e+000 8.73423439184184e-001 1.59430239040402e+001
4.03749999990000e+000 8.54905485049495e-001 6.99329181070387e+000
4.18333333320000e+000 8.22291602509015e-001 -2.87672457525029e+000
4.32916666650000e+000 7.65951586119859e-001 -1.41019290780665e+001
4.47499999980000e+000 6.71516421960283e-001 -2.69907311180625e+001
4.62083333310000e+000 5.24683317719371e-001 -4.10292542914342e+001
4.76666666640000e+000 3.30351810144025e-001 -5.24932576580342e+001
4.91249999970000e+000 1.46674960650905e-001 -4.16041598784323e+001
5.05833333300000e+000 1.40878167739357e-001 1.54415528020390e+001
5.20416666630000e+000 2.05423670514887e-001 2.04552076968083e+001
5.34999999960000e+000 1.58805698136747e-001 1.52568808153681e+001
5.49583333290000e+000 1.61896154235083e-001 8.78437905834344e+001
5.64166666620000e+000 4.26272081816747e-001 8.03961147287973e+001
5.78749999950000e+000 5.83231416072060e-001 6.25591040010010e+001
5.93333333280000e+000 6.62404085230878e-001 4.99908849149999e+001
6.07916666610000e+000 7.07596329974796e-001 4.09577142902249e+001
6.22499999940000e+000 7.36718575413868e-001 3.39988646643445e+001
6.37083333270000e+000 7.57056906700653e-001 2.83259766832892e+001
6.51666666600000e+000 7.71972295413116e-001 2.35054120889745e+001
6.66249999930000e+000 7.83212387641595e-001 1.92822695769038e+001
6.80833333260000e+000 7.91773055752892e-001 1.54966972730335e+001
6.95416666590000e+000 7.98258612118010e-001 1.20427718283538e+001
7.09999999920000e+000 8.03049212690267e-001 8.84703699340156e+000

! acs =  6 12 5 8 3 5 4
! insert_points = 3
! eps2d = 3e-005 3e-005 eps3d = 0.0001 0.0001
! max_factor = 2.5 extract_factor = 0.2 far_factor=0.5 eps_thin = 0.0001 eps_far = 0.01
! max_pts = 12 max_pts_inc_st = 1 max_pts_inc_nr = 1 rate_pts = 2.5 next_ratio = 1.5 max_images=500000
! auto_fixed_lambda = 0 increase_rate = 0.1 min_lambda = 100 max_lambda = 1e+006
