! 
# GHZ S MA R 50
! Nport = 1
3.60000000000000e+000 8.93363976982962e-001 3.72561064041722e+001
3.74583333330000e+000 8.86459100250852e-001 2.80602903765884e+001
3.89166666660000e+000 8.73826773888376e-001 1.84271897382288e+001
4.03749999990000e+000 8.51390586158723e-001 7.94497507360075e+000
4.18333333320000e+000 8.11946670060781e-001 -3.93354248877209e+000
4.32916666650000e+000 7.43251912029194e-001 -1.79064642710699e+001
4.47499999980000e+000 6.27589484589662e-001 -3.46928801119874e+001
4.62083333310000e+000 4.50355554048136e-001 -5.45051986316783e+001
4.76666666640000e+000 2.24567225464057e-001 -7.59376814302230e+001
4.91249999970000e+000 8.32245002634037e-003 -2.95672444702921e+001
5.05833333300000e+000 1.57410450224068e-001 5.35189332081870e+001
5.20416666630000e+000 2.12419760534871e-001 3.04250573735154e+001
5.34999999960000e+000 9.57567095336854e-002 6.99474102939838e+000
5.49583333290000e+000 2.29298699484332e-001 1.24597727440189e+002
5.64166666620000e+000 4.97305148868857e-001 9.34235631085471e+001
5.78749999950000e+000 6.25552305615622e-001 7.25607542237404e+001
5.93333333280000e+000 6.89001908326550e-001 5.89858911358654e+001
6.07916666610000e+000 7.25943726603702e-001 4.92700876784984e+001
6.22499999940000e+000 7.50206617880816e-001 4.17389638225103e+001
6.37083333270000e+000 7.67359431842802e-001 3.55610421932987e+001
6.51666666600000e+000 7.80005797194325e-001 3.02850943123157e+001
6.66249999930000e+000 7.89519447076580e-001 2.56446785235936e+001
6.80833333260000e+000 7.96689468707919e-001 2.14710144310797e+001
6.95416666590000e+000 8.01992676001874e-001 1.76508499542241e+001
7.09999999920000e+000 8.05721255183630e-001 1.41044525868892e+001

! acs =  6 12 5 8 3 5 4
! insert_points = 3
! eps2d = 3e-005 3e-005 eps3d = 0.0001 0.0001
! max_factor = 2.5 extract_factor = 0.2 far_factor=0.5 eps_thin = 0.0001 eps_far = 0.01
! max_pts = 12 max_pts_inc_st = 1 max_pts_inc_nr = 1 rate_pts = 2.5 next_ratio = 1.5 max_images=500000
! auto_fixed_lambda = 0 increase_rate = 0.1 min_lambda = 100 max_lambda = 1e+006
