! 
# GHZ S MA R 50
! Nport = 1
3.60000000000000e+000 9.01151646561682e-001 4.41015221184112e+001
3.74583333330000e+000 8.99364974940895e-001 3.56103475666831e+001
3.89166666660000e+000 8.95715406820564e-001 2.72545277821496e+001
4.03749999990000e+000 8.89284520943597e-001 1.88584545453921e+001
4.18333333320000e+000 8.78708613750142e-001 1.02276663756943e+001
4.32916666650000e+000 8.61916433096510e-001 1.13745491114930e+000
4.47499999980000e+000 8.35749746210037e-001 -8.67850572540810e+000
4.62083333310000e+000 7.95490119132777e-001 -1.95335896155227e+001
4.76666666640000e+000 7.34523217135760e-001 -3.17718612214638e+001
4.91249999970000e+000 6.44919846111462e-001 -4.56955374886538e+001
5.05833333300000e+000 5.20513296317540e-001 -6.13789378775929e+001
5.20416666630000e+000 3.63491162905627e-001 -7.82658396910174e+001
5.34999999960000e+000 1.90899103353301e-001 -9.36647491217980e+001
5.49583333290000e+000 4.32369891135247e-002 -7.14646188069248e+001
5.64166666620000e+000 1.04194855683850e-001 6.81153262736875e+000
5.78749999950000e+000 1.55631707773271e-001 -2.14160285820878e+001
5.93333333280000e+000 1.37018807116364e-001 -8.68293514688458e+001
6.07916666610000e+000 2.07702707030260e-001 1.76585672574681e+002
6.22499999940000e+000 3.63164311994495e-001 1.25564191696867e+002
6.37083333270000e+000 4.80924015099709e-001 9.73318660330548e+001
6.51666666600000e+000 5.58520516331004e-001 7.90966107516086e+001
6.66249999930000e+000 6.11251744642715e-001 6.61358314863225e+001
6.80833333260000e+000 6.48992860826162e-001 5.62564934209339e+001
6.95416666590000e+000 6.77172051307181e-001 4.83263919280613e+001
7.09999999920000e+000 6.98850503982759e-001 4.17103519310183e+001

! acs =  6 12 5 8 3 5 4
! insert_points = 3
! eps2d = 3e-005 3e-005 eps3d = 0.0001 0.0001
! max_factor = 2.5 extract_factor = 0.2 far_factor=0.5 eps_thin = 0.0001 eps_far = 0.01
! max_pts = 12 max_pts_inc_st = 1 max_pts_inc_nr = 1 rate_pts = 2.5 next_ratio = 1.5 max_images=500000
! auto_fixed_lambda = 0 increase_rate = 0.1 min_lambda = 100 max_lambda = 1e+006
