! 
# GHZ S MA R 50
! Nport = 1
3.60000000000000e+000 9.07385096044081e-001 5.29047801531495e+001
3.74583333330000e+000 9.04034534845098e-001 4.30928224954469e+001
3.89166666660000e+000 8.98463717257520e-001 3.31023957712849e+001
4.03749999990000e+000 8.89187648321668e-001 2.26678705152012e+001
4.18333333320000e+000 8.73836902793872e-001 1.14504135708864e+001
4.32916666650000e+000 8.48595105007019e-001 -9.94416571168568e-001
4.47499999980000e+000 8.07473295475226e-001 -1.52536961164952e+001
4.62083333310000e+000 7.41924148614696e-001 -3.20841998302270e+001
4.76666666640000e+000 6.42611096942288e-001 -5.24096668435174e+001
4.91249999970000e+000 5.06657638684453e-001 -7.73601156000648e+001
5.05833333300000e+000 3.49890074864903e-001 -1.08820682360758e+002
5.20416666630000e+000 2.10365994265965e-001 -1.50905651076661e+002
5.34999999960000e+000 1.18412605414064e-001 1.56298176709780e+002
5.49583333290000e+000 4.58327019902855e-002 1.74077457884736e+002
5.64166666620000e+000 2.80779212961560e-001 -1.77193300835240e+002
5.78749999950000e+000 5.18824199960691e-001 1.37826659139476e+002
5.93333333280000e+000 6.21880719937317e-001 1.08350126401164e+002
6.07916666610000e+000 6.71236488815627e-001 8.95424718385640e+001
6.22499999940000e+000 7.02002218767161e-001 7.62559864325900e+001
6.37083333270000e+000 7.24113867236615e-001 6.60739892496569e+001
6.51666666600000e+000 7.41063898608038e-001 5.78208826225614e+001
6.66249999930000e+000 7.54459300393540e-001 5.08615746476805e+001
6.80833333260000e+000 7.65199635945100e-001 4.48200450702935e+001
6.95416666590000e+000 7.73850179674371e-001 3.94569734924327e+001
7.09999999920000e+000 7.80787727612938e-001 3.46110954059195e+001

! acs =  6 12 5 8 3 5 4
! insert_points = 3
! eps2d = 3e-005 3e-005 eps3d = 0.0001 0.0001
! max_factor = 2.5 extract_factor = 0.2 far_factor=0.5 eps_thin = 0.0001 eps_far = 0.01
! max_pts = 12 max_pts_inc_st = 1 max_pts_inc_nr = 1 rate_pts = 2.5 next_ratio = 1.5 max_images=500000
! auto_fixed_lambda = 0 increase_rate = 0.1 min_lambda = 100 max_lambda = 1e+006
