! 
# GHZ S MA R 50
! Nport = 1
3.60000000000000e+000 8.85467051070423e-001 4.65008440539916e+001
3.74583333330000e+000 8.84846225167075e-001 3.84468895827794e+001
3.89166666660000e+000 8.82233761672548e-001 3.06044184251961e+001
4.03749999990000e+000 8.76610946226705e-001 2.27865110377792e+001
4.18333333320000e+000 8.66387836453532e-001 1.47870575069091e+001
4.32916666650000e+000 8.49011672158448e-001 6.36740526171247e+000
4.47499999980000e+000 8.20356842495047e-001 -2.75405025696475e+000
4.62083333310000e+000 7.73911887941395e-001 -1.28937169181380e+001
4.76666666640000e+000 7.00230661624775e-001 -2.43294326589423e+001
4.91249999970000e+000 5.88459532253118e-001 -3.70414833627643e+001
5.05833333300000e+000 4.33542913537370e-001 -4.99677576756399e+001
5.20416666630000e+000 2.49980712353005e-001 -5.83521367430327e+001
5.34999999960000e+000 9.70560657212876e-002 -3.15369844809527e+001
5.49583333290000e+000 1.47466488575213e-001 3.13369468998898e+001
5.64166666620000e+000 2.41709269836235e-001 3.19829112516797e+001
5.78749999950000e+000 2.76896149492034e-001 2.25697441285152e+001
5.93333333280000e+000 2.24982639343087e-001 1.59549068805417e+001
6.07916666610000e+000 1.58643703978485e-001 5.27555033234826e+001
6.22499999940000e+000 3.38738991479518e-001 7.42135576703899e+001
6.37083333270000e+000 5.10640304725184e-001 6.25561095009865e+001
6.51666666600000e+000 6.10191577200298e-001 5.09274140265585e+001
6.66249999930000e+000 6.67922771624085e-001 4.18863532276848e+001
6.80833333260000e+000 7.04369303226926e-001 3.47734594573399e+001
6.95416666590000e+000 7.29232378562276e-001 2.89515659676584e+001
7.09999999920000e+000 7.47156448968106e-001 2.40109238772635e+001

! acs =  6 12 5 8 3 5 4
! insert_points = 3
! eps2d = 3e-005 3e-005 eps3d = 0.0001 0.0001
! max_factor = 2.5 extract_factor = 0.2 far_factor=0.5 eps_thin = 0.0001 eps_far = 0.01
! max_pts = 12 max_pts_inc_st = 1 max_pts_inc_nr = 1 rate_pts = 2.5 next_ratio = 1.5 max_images=500000
! auto_fixed_lambda = 0 increase_rate = 0.1 min_lambda = 100 max_lambda = 1e+006
