! 
# GHZ S MA R 50
! Nport = 1
3.60000000000000e+000 8.84873874995277e-001 6.70683639179710e+001
3.74583333330000e+000 8.84060700189725e-001 5.81646715148905e+001
3.89166666660000e+000 8.82279213998346e-001 4.95278140092327e+001
4.03749999990000e+000 8.78745305672610e-001 4.09827863288577e+001
4.18333333320000e+000 8.72277590491607e-001 3.23257891183948e+001
4.32916666650000e+000 8.60979649431894e-001 2.33066689771846e+001
4.47499999980000e+000 8.41688395080821e-001 1.36037462376834e+001
4.62083333310000e+000 8.09055362980975e-001 2.79257683683356e+000
4.76666666640000e+000 7.54255902916898e-001 -9.67792584920188e+000
4.91249999970000e+000 6.64189669773321e-001 -2.44560480137967e+001
5.05833333300000e+000 5.24750007568094e-001 -4.21284740040838e+001
5.20416666630000e+000 3.34074904454797e-001 -6.31717526953506e+001
5.34999999960000e+000 1.20115161191048e-001 -9.29574049508583e+001
5.49583333290000e+000 8.93226635961573e-002 1.05853620236668e+002
5.64166666620000e+000 2.35873999324293e-001 7.60167491446105e+001
5.78749999950000e+000 3.28805239944851e-001 5.93706245004136e+001
5.93333333280000e+000 3.61307819584167e-001 4.60250158464495e+001
6.07916666610000e+000 3.18958801618159e-001 3.77199531463421e+001
6.22499999940000e+000 2.48901365842261e-001 5.57444163076117e+001
6.37083333270000e+000 4.08635460693321e-001 7.51396473982841e+001
6.51666666600000e+000 5.85018680418710e-001 6.45718377191723e+001
6.66249999930000e+000 6.75355270789173e-001 5.31294833914928e+001
6.80833333260000e+000 7.21733351552661e-001 4.42943295495545e+001
6.95416666590000e+000 7.48829656806157e-001 3.73544408549554e+001
7.09999999920000e+000 7.66528642860660e-001 3.16431026784860e+001

! acs =  6 12 5 8 3 5 4
! insert_points = 3
! eps2d = 3e-005 3e-005 eps3d = 0.0001 0.0001
! max_factor = 2.5 extract_factor = 0.2 far_factor=0.5 eps_thin = 0.0001 eps_far = 0.01
! max_pts = 12 max_pts_inc_st = 1 max_pts_inc_nr = 1 rate_pts = 2.5 next_ratio = 1.5 max_images=500000
! auto_fixed_lambda = 0 increase_rate = 0.1 min_lambda = 100 max_lambda = 1e+006
