! 
# GHZ S MA R 50
! Nport = 1
3.60000000000000e+000 8.86336565493138e-001 5.05805627849961e+001
3.74583333330000e+000 8.87207530168304e-001 4.25806621591848e+001
3.89166666660000e+000 8.86822009968472e-001 3.49500057506535e+001
4.03749999990000e+000 8.84611403013952e-001 2.75354478802320e+001
4.18333333320000e+000 8.79760572981581e-001 2.01826067361454e+001
4.32916666650000e+000 8.71043136797093e-001 1.27279660972351e+001
4.47499999980000e+000 8.56568921577982e-001 4.99088205486331e+000
4.62083333310000e+000 8.33405346653699e-001 -3.23156355557965e+000
4.76666666640000e+000 7.97070979410936e-001 -1.21579010965201e+001
4.91249999970000e+000 7.41085328636388e-001 -2.19788952966900e+001
5.05833333300000e+000 6.57336498642597e-001 -3.27139260836442e+001
5.20416666630000e+000 5.39149346316817e-001 -4.38129384496961e+001
5.34999999960000e+000 3.89398970445921e-001 -5.30612172403346e+001
5.49583333290000e+000 2.33906115535567e-001 -5.27622512258652e+001
5.64166666620000e+000 1.48709197526871e-001 -2.24201809143511e+001
5.78749999950000e+000 1.95564513599972e-001 5.26165277249119e+000
5.93333333280000e+000 2.53774043341460e-001 3.21269936934671e+000
6.07916666610000e+000 2.48510281858731e-001 -1.03923234775943e+001
6.22499999940000e+000 1.39808934286688e-001 -2.75591234978745e+001
6.37083333270000e+000 7.78444970626832e-002 9.58792338001759e+001
6.51666666600000e+000 2.93533593015653e-001 8.56648395282185e+001
6.66249999930000e+000 4.49390894751930e-001 6.86860689614049e+001
6.80833333260000e+000 5.48158231598819e-001 5.57221113020957e+001
6.95416666590000e+000 6.11846871194334e-001 4.59167048003254e+001
7.09999999920000e+000 6.55179611714767e-001 3.82149316994971e+001

! acs =  6 12 5 8 3 5 4
! insert_points = 3
! eps2d = 3e-005 3e-005 eps3d = 0.0001 0.0001
! max_factor = 2.5 extract_factor = 0.2 far_factor=0.5 eps_thin = 0.0001 eps_far = 0.01
! max_pts = 12 max_pts_inc_st = 1 max_pts_inc_nr = 1 rate_pts = 2.5 next_ratio = 1.5 max_images=500000
! auto_fixed_lambda = 0 increase_rate = 0.1 min_lambda = 100 max_lambda = 1e+006
