! 
# GHZ S MA R 50
! Nport = 1
3.60000000000000e+000 9.04702453374826e-001 6.49734634940333e+001
3.74583333330000e+000 9.02420341383914e-001 5.55213792785257e+001
3.89166666660000e+000 8.99101629028485e-001 4.61662344492596e+001
4.03749999990000e+000 8.93980167302074e-001 3.67386128578002e+001
4.18333333320000e+000 8.85930624947501e-001 2.70364937224836e+001
4.32916666650000e+000 8.73239307270528e-001 1.68104610300119e+001
4.47499999980000e+000 8.53252232399745e-001 5.74330715028572e+000
4.62083333310000e+000 8.21889411419929e-001 -6.57537187654074e+000
4.76666666640000e+000 7.73170139835139e-001 -2.06754526835433e+001
4.91249999970000e+000 6.99401471997168e-001 -3.72262963061009e+001
5.05833333300000e+000 5.93707657725517e-001 -5.70704012588378e+001
5.20416666630000e+000 4.57007111570598e-001 -8.14769267448676e+001
5.34999999960000e+000 3.08062293981772e-001 -1.13502116931688e+002
5.49583333290000e+000 1.91258414743986e-001 -1.61684347011745e+002
5.64166666620000e+000 1.62026458008048e-001 1.34018189712350e+002
5.78749999950000e+000 1.76694029869552e-001 8.40668172569605e+001
5.93333333280000e+000 1.31132323287532e-001 4.30197238215409e+001
6.07916666610000e+000 5.81994471466794e-002 -1.57210524312168e+002
6.22499999940000e+000 3.34633697301426e-001 1.47716876733847e+002
6.37083333270000e+000 5.22403591103929e-001 1.14211885599203e+002
6.51666666600000e+000 6.15560512189320e-001 9.25448366396029e+001
6.66249999930000e+000 6.65853123896389e-001 7.77114700676821e+001
6.80833333260000e+000 6.97348726811139e-001 6.66984292116364e+001
6.95416666590000e+000 7.19294423320772e-001 5.79788688830413e+001
7.09999999920000e+000 7.35610823655692e-001 5.07453198114059e+001

! acs =  6 12 5 8 3 5 4
! insert_points = 3
! eps2d = 3e-005 3e-005 eps3d = 0.0001 0.0001
! max_factor = 2.5 extract_factor = 0.2 far_factor=0.5 eps_thin = 0.0001 eps_far = 0.01
! max_pts = 12 max_pts_inc_st = 1 max_pts_inc_nr = 1 rate_pts = 2.5 next_ratio = 1.5 max_images=500000
! auto_fixed_lambda = 0 increase_rate = 0.1 min_lambda = 100 max_lambda = 1e+006
