! 
# GHZ S MA R 50
! Nport = 1
3.60000000000000e+000 9.02189542941118e-001 8.10807776239520e+001
3.74583333330000e+000 9.00073885698004e-001 7.16787788737917e+001
3.89166666660000e+000 8.97625819170127e-001 6.24768422201339e+001
4.03749999990000e+000 8.94326344315266e-001 5.33425840700201e+001
4.18333333320000e+000 8.89435712907476e-001 4.41168093711438e+001
4.32916666650000e+000 8.81839031819613e-001 3.46022689593605e+001
4.47499999980000e+000 8.69785385871262e-001 2.45460972410052e+001
4.62083333310000e+000 8.50456709666979e-001 1.36140859136344e+001
4.76666666640000e+000 8.19306593296793e-001 1.35589270585783e+000
4.91249999970000e+000 7.69261942737378e-001 -1.28354654496170e+001
5.05833333300000e+000 6.90555029346144e-001 -2.97607898524972e+001
5.20416666630000e+000 5.73691600694077e-001 -5.04785252117886e+001
5.34999999960000e+000 4.19541905735307e-001 -7.67882729580596e+001
5.49583333290000e+000 2.56215516984083e-001 -1.14335816262441e+002
5.64166666620000e+000 1.61756439626788e-001 -1.79381153962979e+002
5.78749999950000e+000 1.98791413450430e-001 1.15808957281624e+002
5.93333333280000e+000 2.53450419200604e-001 7.89236227446515e+001
6.07916666610000e+000 2.46741500553470e-001 5.06691908641423e+001
6.22499999940000e+000 1.17881871896737e-001 2.53114198295256e+001
6.37083333270000e+000 1.75564548796796e-001 1.46379497497737e+002
6.51666666600000e+000 4.51852617277118e-001 1.15715748109153e+002
6.66249999930000e+000 5.97896921682679e-001 9.20930959410266e+001
6.80833333260000e+000 6.68469056162182e-001 7.61988005336003e+001
6.95416666590000e+000 7.07502641383839e-001 6.47724665109671e+001
7.09999999920000e+000 7.32264268635355e-001 5.59348491847115e+001

! acs =  6 12 5 8 3 5 4
! insert_points = 3
! eps2d = 3e-005 3e-005 eps3d = 0.0001 0.0001
! max_factor = 2.5 extract_factor = 0.2 far_factor=0.5 eps_thin = 0.0001 eps_far = 0.01
! max_pts = 12 max_pts_inc_st = 1 max_pts_inc_nr = 1 rate_pts = 2.5 next_ratio = 1.5 max_images=500000
! auto_fixed_lambda = 0 increase_rate = 0.1 min_lambda = 100 max_lambda = 1e+006
