! 
# GHZ S MA R 50
! Nport = 1
3.60000000000000e+000 8.86397501019840e-001 7.42246349776681e+001
3.74583333330000e+000 8.86436734067463e-001 6.51143058835149e+001
3.89166666660000e+000 8.86189594336987e-001 5.64206852639988e+001
4.03749999990000e+000 8.85200144928978e-001 4.80106620594831e+001
4.18333333320000e+000 8.82881566673740e-001 3.97409225761910e+001
4.32916666650000e+000 8.78407534516815e-001 3.14519293438157e+001
4.47499999980000e+000 8.70539211190126e-001 2.29584452080381e+001
4.62083333310000e+000 8.57345932327826e-001 1.40363953261177e+001
4.76666666640000e+000 8.35763190530025e-001 4.40672669064407e+000
4.91249999970000e+000 8.00953828938910e-001 -6.27942635297096e+000
5.05833333300000e+000 7.45625536724744e-001 -1.84396745205164e+001
5.20416666630000e+000 6.60128816411488e-001 -3.25084228366770e+001
5.34999999960000e+000 5.35541993538584e-001 -4.87887930533980e+001
5.49583333290000e+000 3.72070433436309e-001 -6.72875229702014e+001
5.64166666620000e+000 1.88062040512521e-001 -8.83893506676335e+001
5.78749999950000e+000 2.13405133434553e-002 -1.51074404848922e+002
5.93333333280000e+000 1.20613327547833e-001 6.75817850690120e+001
6.07916666610000e+000 1.93273234430820e-001 4.67228739365542e+001
6.22499999940000e+000 1.80087414542871e-001 2.92681149018578e+001
6.37083333270000e+000 7.32007065441233e-002 5.68968255835169e+001
6.51666666600000e+000 2.58263309939894e-001 1.09078514500538e+002
6.66249999930000e+000 4.67306857648192e-001 8.87002414440513e+001
6.80833333260000e+000 5.84340720096454e-001 7.14948592658559e+001
6.95416666590000e+000 6.48640626021654e-001 5.91250261402392e+001
7.09999999920000e+000 6.87993918445213e-001 4.98517015038892e+001

! acs =  6 12 5 8 3 5 4
! insert_points = 3
! eps2d = 3e-005 3e-005 eps3d = 0.0001 0.0001
! max_factor = 2.5 extract_factor = 0.2 far_factor=0.5 eps_thin = 0.0001 eps_far = 0.01
! max_pts = 12 max_pts_inc_st = 1 max_pts_inc_nr = 1 rate_pts = 2.5 next_ratio = 1.5 max_images=500000
! auto_fixed_lambda = 0 increase_rate = 0.1 min_lambda = 100 max_lambda = 1e+006
