! 
# GHZ S MA R 50
! Nport = 1
3.60000000000000e+000 8.74312362519775e-001 6.59175931435106e+001
3.74583333330000e+000 8.75887457771776e-001 5.73179685329160e+001
3.89166666660000e+000 8.76876173427511e-001 4.92180305803754e+001
4.03749999990000e+000 8.76824875729027e-001 4.14707885030477e+001
4.18333333320000e+000 8.75147154700964e-001 3.39282586063081e+001
4.32916666650000e+000 8.71004250928898e-001 2.64350804310791e+001
4.47499999980000e+000 8.63120271077299e-001 1.88199673104466e+001
4.62083333310000e+000 8.49487126387353e-001 1.08857213808310e+001
4.76666666640000e+000 8.26901272017532e-001 2.40061076259404e+000
4.91249999970000e+000 7.90306596285387e-001 -6.89918046070641e+000
5.05833333300000e+000 7.32145454752728e-001 -1.72669204230979e+001
5.20416666630000e+000 6.42707700312283e-001 -2.87856814274531e+001
5.34999999960000e+000 5.14032494834744e-001 -4.09072509574964e+001
5.49583333290000e+000 3.50057873050754e-001 -5.11320741405003e+001
5.64166666620000e+000 1.81332537718508e-001 -4.90060945494861e+001
5.78749999950000e+000 1.12490148780489e-001 2.68922148153241e+000
5.93333333280000e+000 1.94412324009008e-001 2.94753306182856e+001
6.07916666610000e+000 2.61553944756635e-001 2.62831577922913e+001
6.22499999940000e+000 2.65961635306627e-001 1.82913546871693e+001
6.37083333270000e+000 1.92668814888504e-001 2.07012586933338e+001
6.51666666600000e+000 2.05036693669959e-001 6.53128206810461e+001
6.66249999930000e+000 3.95993935130044e-001 6.92550911881595e+001
6.80833333260000e+000 5.40241898991519e-001 5.76291262234796e+001
6.95416666590000e+000 6.24179690432378e-001 4.71974945713681e+001
7.09999999920000e+000 6.74596426670049e-001 3.89940194417398e+001

! acs =  6 12 5 8 3 5 4
! insert_points = 3
! eps2d = 3e-005 3e-005 eps3d = 0.0001 0.0001
! max_factor = 2.5 extract_factor = 0.2 far_factor=0.5 eps_thin = 0.0001 eps_far = 0.01
! max_pts = 12 max_pts_inc_st = 1 max_pts_inc_nr = 1 rate_pts = 2.5 next_ratio = 1.5 max_images=500000
! auto_fixed_lambda = 0 increase_rate = 0.1 min_lambda = 100 max_lambda = 1e+006
