! 
# GHZ S MA R 50
! Nport = 1
9.00000000000000e-001 9.03958853351629e-001 1.08202382556198e+002
1.00526315790000e+000 9.03316265305374e-001 8.34431386009413e+001
1.11052631580000e+000 9.04951180923942e-001 6.28340103998350e+001
1.21578947370000e+000 9.04461791689218e-001 4.44936781844947e+001
1.32105263160000e+000 8.93674036400326e-001 2.62442476312567e+001
1.42631578950000e+000 8.43708075033592e-001 4.72059849817723e+000
1.53157894740000e+000 6.33134065125578e-001 -2.49056815792077e+001
1.63684210530000e+000 2.71694927783645e-001 -2.19408135734491e+001
1.74210526320000e+000 2.62119755709147e-001 -1.04046274979324e+002
1.84736842110000e+000 6.01873715362314e-001 9.07886317206249e+001
1.95263157900000e+000 7.42966721036291e-001 5.43867244787597e+001
2.05789473690000e+000 7.94117404006779e-001 3.73266356863328e+001
2.16315789480000e+000 8.19412954695740e-001 2.60942254454911e+001
2.26842105270000e+000 8.33308854645727e-001 1.74574939850422e+001
2.37368421060000e+000 8.40677048855936e-001 1.02241893274630e+001
2.47894736850000e+000 8.43529587993178e-001 3.82948317118149e+000
2.58421052640000e+000 8.42785372465276e-001 -2.06422985009972e+000
2.68947368430000e+000 8.38102477682716e-001 -7.75079197621602e+000
2.79473684220000e+000 8.25549795673723e-001 -1.34490314718424e+001
2.90000000010000e+000 7.99992405869029e-001 -1.89895953559216e+001

! acs =  6 12 5 8 3 5 4
! insert_points = 3
! eps2d = 3e-005 3e-005 eps3d = 0.0001 0.0001
! max_factor = 2.5 extract_factor = 0.2 far_factor=0.5 eps_thin = 0.0001 eps_far = 0.01
! max_pts = 12 max_pts_inc_st = 1 max_pts_inc_nr = 1 rate_pts = 2.5 next_ratio = 1.5 max_images=500000
! auto_fixed_lambda = 0 increase_rate = 0.1 min_lambda = 100 max_lambda = 1e+006
