! 
# GHZ S MA R 50
! Nport = 1
2.00000000000000e+000 9.25705463550531e-001 6.21115643265779e+001
2.10526315790000e+000 9.24369221067689e-001 5.32095624173303e+001
2.21052631580000e+000 9.21308051388836e-001 4.46603137896985e+001
2.31578947370000e+000 9.15108441193726e-001 3.61430565933309e+001
2.42105263160000e+000 9.03006452528210e-001 2.72585504849286e+001
2.52631578950000e+000 8.79096943153371e-001 1.74476023675014e+001
2.63157894740000e+000 8.29837131013084e-001 5.88191283759796e+000
2.73684210530000e+000 7.23842827193566e-001 -8.42881524774061e+000
2.84210526320000e+000 5.05977319993652e-001 -2.39621901788729e+001
2.94736842110000e+000 2.26048870556128e-001 -1.03410111080789e+001
3.05263157900000e+000 3.37471177901913e-001 3.40245986199343e+001
3.15789473690000e+000 4.98215662522427e-001 2.10373294125198e+001
3.26315789480000e+000 5.06880548876559e-001 -6.74099775596700e+000
3.36842105270000e+000 2.80690472630249e-001 -6.64003577300658e+001
3.47368421060000e+000 3.31930096144706e-001 1.36843841333010e+002
3.57894736850000e+000 6.06057248905239e-001 8.80997094639179e+001
3.68421052640000e+000 7.24315053948224e-001 6.65129509265108e+001
3.78947368430000e+000 7.79860050360936e-001 5.37267701425292e+001
3.89473684220000e+000 8.10296927751764e-001 4.48945164270611e+001
4.00000000010000e+000 8.28797333953246e-001 3.81659083407482e+001

! acs =  6 12 5 8 3 5 4
! insert_points = 3
! eps2d = 3e-005 3e-005 eps3d = 0.0001 0.0001
! max_factor = 2.5 extract_factor = 0.2 far_factor=0.5 eps_thin = 0.0001 eps_far = 0.01
! max_pts = 12 max_pts_inc_st = 1 max_pts_inc_nr = 1 rate_pts = 2.5 next_ratio = 1.5 max_images=500000
! auto_fixed_lambda = 0 increase_rate = 0.1 min_lambda = 100 max_lambda = 1e+006
