! 
# GHZ S MA R 50
! Nport = 1
1.20000000000000e+000 9.67032541339730e-001 6.54096939349425e+001
1.30000000000000e+000 9.68651825729566e-001 5.38311482023573e+001
1.40000000000000e+000 9.69738302177884e-001 4.27624874990347e+001
1.50000000000000e+000 9.68866199632111e-001 3.14813428805311e+001
1.60000000000000e+000 9.62246003139321e-001 1.89950240984616e+001
1.70000000000000e+000 9.38453060000629e-001 3.61501871502719e+000
1.80000000000000e+000 8.59801580498387e-001 -1.79263299475469e+001
1.90000000000000e+000 6.19670869230613e-001 -5.12810612645595e+001
2.00000000000000e+000 1.56651448510388e-001 -1.02166842943379e+002
2.10000000000000e+000 2.19465409040062e-001 5.52953701377071e+001
2.20000000000000e+000 3.35175875085212e-001 1.37239594802038e+001
2.30000000000000e+000 2.31701962707451e-001 -5.24244331553734e+001
2.40000000000000e+000 3.34430849895617e-001 1.70953319851748e+002
2.50000000000000e+000 6.13875171785566e-001 1.14416496581363e+002
2.60000000000000e+000 7.42707665673557e-001 8.74073248276927e+001
2.70000000000000e+000 8.00234995998939e-001 7.15897444967939e+001
2.80000000000000e+000 8.30322844293308e-001 6.09847769917587e+001
2.90000000000000e+000 8.48302416218964e-001 5.31659210016322e+001
3.00000000000000e+000 8.60033871422810e-001 4.70042977408736e+001
3.10000000000000e+000 8.68016003437474e-001 4.19063171549208e+001
3.20000000000000e+000 8.73219432210247e-001 3.75279001526545e+001

! acs =  6 12 5 8 3 5 4
! insert_points = 3
! eps2d = 3e-005 3e-005 eps3d = 0.0001 0.0001
! max_factor = 2.5 extract_factor = 0.2 far_factor=0.5 eps_thin = 0.0001 eps_far = 0.01
! max_pts = 12 max_pts_inc_st = 1 max_pts_inc_nr = 1 rate_pts = 2.5 next_ratio = 1.5 max_images=500000
! auto_fixed_lambda = 0 increase_rate = 0.1 min_lambda = 100 max_lambda = 1e+006
