! 
# GHZ S MA R 50
! Nport = 1
2.20000000000000e+000 9.71887684829157e-001 2.99699932531635e+001
2.30000000000000e+000 9.68215828710004e-001 1.88290896649347e+001
2.40000000000000e+000 9.59665700900274e-001 6.36868987227929e+000
2.50000000000000e+000 9.41716612021915e-001 -8.09819449673840e+000
2.60000000000000e+000 9.06200242190695e-001 -2.55195005270678e+001
2.70000000000000e+000 8.39897856348259e-001 -4.72402706732003e+001
2.80000000000000e+000 7.26733715836391e-001 -7.47972082030418e+001
2.90000000000000e+000 5.66664599489472e-001 -1.09760329456228e+002
3.00000000000000e+000 3.98879704951061e-001 -1.53979313224095e+002
3.10000000000000e+000 2.82330513132482e-001 1.51265302516163e+002
3.20000000000000e+000 2.27037104334178e-001 9.08786753198417e+001
3.30000000000000e+000 1.90420793672456e-001 2.42435825984487e+001
3.40000000000000e+000 2.06265111845111e-001 -6.26399778046506e+001
3.50000000000000e+000 3.53593121406365e-001 -1.34579354433710e+002
3.60000000000000e+000 5.24571687986173e-001 1.79750768661249e+002
3.70000000000000e+000 6.42601112063953e-001 1.48965200128881e+002
3.80000000000000e+000 7.12511736625008e-001 1.27393601739434e+002
3.90000000000000e+000 7.54401392672620e-001 1.11600197635395e+002
4.00000000000000e+000 7.81188494662010e-001 9.94944725740721e+001
4.10000000000000e+000 7.99546601539139e-001 8.98313731486574e+001
4.20000000000000e+000 8.12877843529892e-001 8.18538431802172e+001

! acs =  6 12 5 8 3 5 4
! insert_points = 3
! eps2d = 3e-005 3e-005 eps3d = 0.0001 0.0001
! max_factor = 2.5 extract_factor = 0.2 far_factor=0.5 eps_thin = 0.0001 eps_far = 0.01
! max_pts = 12 max_pts_inc_st = 1 max_pts_inc_nr = 1 rate_pts = 2.5 next_ratio = 1.5 max_images=500000
! auto_fixed_lambda = 0 increase_rate = 0.1 min_lambda = 100 max_lambda = 1e+006
