! 
# GHZ S MA R 50
! Nport = 1
2.20000000000000e+000 9.70542108652164e-001 2.00640466151392e+001
2.30000000000000e+000 9.66911422753214e-001 1.01229290382523e+001
2.40000000000000e+000 9.55807723841239e-001 -1.25414814021737e+000
2.50000000000000e+000 9.29082777466847e-001 -1.49919471722720e+001
2.60000000000000e+000 8.70106130551315e-001 -3.24780807087490e+001
2.70000000000000e+000 7.51639090751682e-001 -5.56225063374166e+001
2.80000000000000e+000 5.51762970413302e-001 -8.69344276912998e+001
2.90000000000000e+000 3.15614361751447e-001 -1.32191160274792e+002
3.00000000000000e+000 1.97073573958889e-001 1.52268817846723e+002
3.10000000000000e+000 2.47802587493900e-001 8.96954505378920e+001
3.20000000000000e+000 2.91756164412081e-001 5.62361417137060e+001
3.30000000000000e+000 2.67880369282461e-001 3.16574230132836e+001
3.40000000000000e+000 1.56896950396188e-001 1.10487288799098e+001
3.50000000000000e+000 5.20258898720624e-002 1.26082887275620e+002
3.60000000000000e+000 2.78941011765812e-001 1.24962339116376e+002
3.70000000000000e+000 4.67189854829003e-001 1.05672654612820e+002
3.80000000000000e+000 5.91260921208899e-001 8.99454707662084e+001
3.90000000000000e+000 6.68433750866751e-001 7.79346313469632e+001
4.00000000000000e+000 7.17576363036374e-001 6.86537774713116e+001
4.10000000000000e+000 7.50440096260168e-001 6.12667845810949e+001
4.20000000000000e+000 7.73550957981544e-001 5.52039786637812e+001

! acs =  6 12 5 8 3 5 4
! insert_points = 3
! eps2d = 3e-005 3e-005 eps3d = 0.0001 0.0001
! max_factor = 2.5 extract_factor = 0.2 far_factor=0.5 eps_thin = 0.0001 eps_far = 0.01
! max_pts = 12 max_pts_inc_st = 1 max_pts_inc_nr = 1 rate_pts = 2.5 next_ratio = 1.5 max_images=500000
! auto_fixed_lambda = 0 increase_rate = 0.1 min_lambda = 100 max_lambda = 1e+006
