! 
# GHZ S MA R 50
! Nport = 1
2.20000000000000e+000 9.74072203570304e-001 2.06470620218330e+001
2.30000000000000e+000 9.69945094091008e-001 9.60263081495199e+000
2.40000000000000e+000 9.58662293670779e-001 -2.99941044163533e+000
2.50000000000000e+000 9.32901291013794e-001 -1.80734257977271e+001
2.60000000000000e+000 8.77929768905293e-001 -3.69186163641689e+001
2.70000000000000e+000 7.76510035434176e-001 -6.11610454746666e+001
2.80000000000000e+000 6.12428154228137e-001 -9.34007171235701e+001
2.90000000000000e+000 4.19188354038583e-001 -1.36733470126492e+002
3.00000000000000e+000 2.96204501162457e-001 1.65139777762902e+002
3.10000000000000e+000 2.89558057432938e-001 1.07784436418831e+002
3.20000000000000e+000 3.12035630413486e-001 6.64894861335257e+001
3.30000000000000e+000 2.97000421115918e-001 3.25106871980829e+001
3.40000000000000e+000 2.22970497281749e-001 -6.20160380693640e+000
3.50000000000000e+000 1.30962295303191e-001 -8.15032329912229e+001
3.60000000000000e+000 2.31217933105806e-001 -1.73574798390699e+002
3.70000000000000e+000 4.04954988421245e-001 1.46068987660533e+002
3.80000000000000e+000 5.38618282343450e-001 1.21388367803999e+002
3.90000000000000e+000 6.27389726257476e-001 1.04052765218610e+002
4.00000000000000e+000 6.85384401107696e-001 9.11714758208321e+001
4.10000000000000e+000 7.24426488182961e-001 8.11799242147243e+001
4.20000000000000e+000 7.51835536706375e-001 7.31421100180323e+001

! acs =  6 12 5 8 3 5 4
! insert_points = 3
! eps2d = 3e-005 3e-005 eps3d = 0.0001 0.0001
! max_factor = 2.5 extract_factor = 0.2 far_factor=0.5 eps_thin = 0.0001 eps_far = 0.01
! max_pts = 12 max_pts_inc_st = 1 max_pts_inc_nr = 1 rate_pts = 2.5 next_ratio = 1.5 max_images=500000
! auto_fixed_lambda = 0 increase_rate = 0.1 min_lambda = 100 max_lambda = 1e+006
