! 
# GHZ S MA R 50
! Nport = 1
2.40000000000000e+000 9.72489731661225e-001 1.29184249172717e+001
2.50000000000000e+000 9.67380724436777e-001 3.69274310706771e+000
2.60000000000000e+000 9.54771816526046e-001 -6.78801150723397e+000
2.70000000000000e+000 9.27503146649625e-001 -1.91984934893944e+001
2.80000000000000e+000 8.72491237360291e-001 -3.44508302354947e+001
2.90000000000000e+000 7.67914701146371e-001 -5.37286089243675e+001
3.00000000000000e+000 5.91426059974839e-001 -7.78922522993401e+001
3.10000000000000e+000 3.55371925630692e-001 -1.07274340089846e+002
3.20000000000000e+000 1.27637360931661e-001 -1.49040037065764e+002
3.30000000000000e+000 6.99100748315889e-002 6.98980269384002e+001
3.40000000000000e+000 1.39317287166056e-001 1.45236433327219e+001
3.50000000000000e+000 1.37909682410197e-001 -3.26251443504681e+001
3.60000000000000e+000 1.31598282929847e-001 -1.14650517681237e+002
3.70000000000000e+000 2.54546885353238e-001 1.75468070744034e+002
3.80000000000000e+000 4.14429164083036e-001 1.38035146600535e+002
3.90000000000000e+000 5.39820102138216e-001 1.13532364638671e+002
4.00000000000000e+000 6.24938772308803e-001 9.61868320762997e+001
4.10000000000000e+000 6.81660481781094e-001 8.33536180199594e+001
4.20000000000000e+000 7.20578200989482e-001 7.34710458819954e+001
4.30000000000000e+000 7.48401714537925e-001 6.55818130444533e+001
4.40000000000000e+000 7.69097638927279e-001 5.90866570366365e+001

! acs =  6 12 5 8 3 5 4
! insert_points = 3
! eps2d = 3e-005 3e-005 eps3d = 0.0001 0.0001
! max_factor = 2.5 extract_factor = 0.2 far_factor=0.5 eps_thin = 0.0001 eps_far = 0.01
! max_pts = 12 max_pts_inc_st = 1 max_pts_inc_nr = 1 rate_pts = 2.5 next_ratio = 1.5 max_images=500000
! auto_fixed_lambda = 0 increase_rate = 0.1 min_lambda = 100 max_lambda = 1e+006
