! 
# GHZ S MA R 50
! Nport = 1
2.40000000000000e+000 9.60883809645367e-001 3.85126881348761e+001
2.50000000000000e+000 9.56753328094652e-001 2.89598982211685e+001
2.60000000000000e+000 9.48897918911338e-001 1.84848070577436e+001
2.70000000000000e+000 9.34203458278748e-001 6.62467792520075e+000
2.80000000000000e+000 9.06961390078080e-001 -7.19035129747298e+000
2.90000000000000e+000 8.60847720631531e-001 -2.39220311685959e+001
3.00000000000000e+000 7.80142675094308e-001 -4.47356522677967e+001
3.10000000000000e+000 6.53345963818916e-001 -7.09028386867768e+001
3.20000000000000e+000 4.86611055336035e-001 -1.03961747118565e+002
3.30000000000000e+000 3.20168075646482e-001 -1.46833373279848e+002
3.40000000000000e+000 2.08785402073473e-001 1.55899917753342e+002
3.50000000000000e+000 1.61580165951477e-001 8.77797793690026e+001
3.60000000000000e+000 1.41936671551808e-001 4.19017399381867e+000
3.70000000000000e+000 2.39226042971116e-001 -9.20729581022982e+001
3.80000000000000e+000 4.54613509749807e-001 -1.54477449201433e+002
3.90000000000000e+000 6.26663873518721e-001 1.64353848043955e+002
4.00000000000000e+000 7.18953918095491e-001 1.36748928124481e+002
4.10000000000000e+000 7.66152336392803e-001 1.17680379396706e+002
4.20000000000000e+000 7.92850239704387e-001 1.03759283019241e+002
4.30000000000000e+000 8.09869243512747e-001 9.30364298257258e+001
4.40000000000000e+000 8.21801551320144e-001 8.44051276466031e+001

! acs =  6 12 5 8 3 5 4
! insert_points = 3
! eps2d = 3e-005 3e-005 eps3d = 0.0001 0.0001
! max_factor = 2.5 extract_factor = 0.2 far_factor=0.5 eps_thin = 0.0001 eps_far = 0.01
! max_pts = 12 max_pts_inc_st = 1 max_pts_inc_nr = 1 rate_pts = 2.5 next_ratio = 1.5 max_images=500000
! auto_fixed_lambda = 0 increase_rate = 0.1 min_lambda = 100 max_lambda = 1e+006
