! 
# GHZ S MA R 50
! Nport = 1
2.40000000000000e+000 9.73881093051933e-001 1.70263459998445e+000
2.50000000000000e+000 9.61503118835459e-001 -1.13335671690263e+001
2.60000000000000e+000 9.34982162477028e-001 -2.67929224049278e+001
2.70000000000000e+000 8.82649413336828e-001 -4.58027546795645e+001
2.80000000000000e+000 7.89215537560208e-001 -6.98004592376216e+001
2.90000000000000e+000 6.45757120223603e-001 -1.00420610036955e+002
3.00000000000000e+000 4.78323620802600e-001 -1.39502047450490e+002
3.10000000000000e+000 3.53600287418777e-001 1.71521761568608e+002
3.20000000000000e+000 3.14593363273739e-001 1.19768137121813e+002
3.30000000000000e+000 3.20382039185985e-001 7.70622808134351e+001
3.40000000000000e+000 3.14808473271256e-001 4.17947027364476e+001
3.50000000000000e+000 2.73136589915005e-001 6.21410064109491e+000
3.60000000000000e+000 2.02034426614164e-001 -4.18058926263648e+001
3.70000000000000e+000 1.85255407261469e-001 -1.16746585561839e+002
3.80000000000000e+000 2.91678677809176e-001 -1.76212439363417e+002
3.90000000000000e+000 4.22660426981148e-001 1.49712346555959e+002
4.00000000000000e+000 5.28199435178308e-001 1.26956835467401e+002
4.10000000000000e+000 6.04252621151253e-001 1.10359410371033e+002
4.20000000000000e+000 6.57943488873952e-001 9.76532105470780e+001
4.30000000000000e+000 6.96410007609651e-001 8.75674007041508e+001
4.40000000000000e+000 7.24713384465238e-001 7.93175359352372e+001

! acs =  6 12 5 8 3 5 4
! insert_points = 3
! eps2d = 3e-005 3e-005 eps3d = 0.0001 0.0001
! max_factor = 2.5 extract_factor = 0.2 far_factor=0.5 eps_thin = 0.0001 eps_far = 0.01
! max_pts = 12 max_pts_inc_st = 1 max_pts_inc_nr = 1 rate_pts = 2.5 next_ratio = 1.5 max_images=500000
! auto_fixed_lambda = 0 increase_rate = 0.1 min_lambda = 100 max_lambda = 1e+006
