! 
# GHZ S MA R 50
! Nport = 1
2.40000000000000e+000 9.72887456675464e-001 2.86914630111594e+001
2.50000000000000e+000 9.71712101032063e-001 1.98160842313820e+001
2.60000000000000e+000 9.67656690138207e-001 1.02817966615126e+001
2.70000000000000e+000 9.58354183908596e-001 -2.86394365154974e-001
2.80000000000000e+000 9.39465236849702e-001 -1.24051259177091e+001
2.90000000000000e+000 9.03000932938800e-001 -2.67647198634260e+001
3.00000000000000e+000 8.38252711344644e-001 -4.42986984171173e+001
3.10000000000000e+000 7.27787736624162e-001 -6.63029805399304e+001
3.20000000000000e+000 5.63654199708456e-001 -9.41422490769415e+001
3.30000000000000e+000 3.71431779825728e-001 -1.30781150776901e+002
3.40000000000000e+000 2.24651456444905e-001 1.74416185380039e+002
3.50000000000000e+000 2.06161439481761e-001 1.05560827989985e+002
3.60000000000000e+000 2.54818886113920e-001 5.72726402415002e+001
3.70000000000000e+000 2.84956541495936e-001 2.13051315403061e+001
3.80000000000000e+000 2.78765868228604e-001 -1.52481924649152e+001
3.90000000000000e+000 2.52930554923549e-001 -6.17546067048128e+001
4.00000000000000e+000 2.65764699305696e-001 -1.19828014912367e+002
4.10000000000000e+000 3.50709308099487e-001 -1.70078903549598e+002
4.20000000000000e+000 4.58112696797752e-001 1.55324110737536e+002
4.30000000000000e+000 5.49217242456804e-001 1.31198476018158e+002
4.40000000000000e+000 6.16974721470160e-001 1.13553824556358e+002

! acs =  6 12 5 8 3 5 4
! insert_points = 3
! eps2d = 3e-005 3e-005 eps3d = 0.0001 0.0001
! max_factor = 2.5 extract_factor = 0.2 far_factor=0.5 eps_thin = 0.0001 eps_far = 0.01
! max_pts = 12 max_pts_inc_st = 1 max_pts_inc_nr = 1 rate_pts = 2.5 next_ratio = 1.5 max_images=500000
! auto_fixed_lambda = 0 increase_rate = 0.1 min_lambda = 100 max_lambda = 1e+006
