! 
# GHZ S MA R 50
! Nport = 1
2.40000000000000e+000 9.52406971461453e-001 6.23812565590619e+001
2.50000000000000e+000 9.49734470773493e-001 5.40493300402274e+001
2.60000000000000e+000 9.45560558559929e-001 4.52955621263422e+001
2.70000000000000e+000 9.38761544031597e-001 3.58708998406071e+001
2.80000000000000e+000 9.27428414034596e-001 2.54364473981825e+001
2.90000000000000e+000 9.08291940883329e-001 1.35191781901926e+001
3.00000000000000e+000 8.75844448691148e-001 -5.48075906196728e-001
3.10000000000000e+000 8.21517591931062e-001 -1.76905661494417e+001
3.20000000000000e+000 7.34769095281665e-001 -3.91411647754096e+001
3.30000000000000e+000 6.10955687711929e-001 -6.64669547802308e+001
3.40000000000000e+000 4.69140240155616e-001 -1.01760464033784e+002
3.50000000000000e+000 3.61408018712340e-001 -1.46760118408487e+002
3.60000000000000e+000 3.31316817949094e-001 1.64763210493754e+002
3.70000000000000e+000 3.51255344457620e-001 1.24796700161990e+002
3.80000000000000e+000 3.67498740056908e-001 9.33438012015041e+001
3.90000000000000e+000 3.45693574194464e-001 6.38228804097315e+001
4.00000000000000e+000 2.57004197421290e-001 2.53858929504850e+001
4.10000000000000e+000 1.51087510437472e-001 -6.97329436267482e+001
4.20000000000000e+000 3.67497368226406e-001 -1.66455997977587e+002
4.30000000000000e+000 5.94060442785260e-001 1.51223298457243e+002
4.40000000000000e+000 7.10536902572388e-001 1.25545177018183e+002

! acs =  6 12 5 8 3 5 4
! insert_points = 3
! eps2d = 3e-005 3e-005 eps3d = 0.0001 0.0001
! max_factor = 2.5 extract_factor = 0.2 far_factor=0.5 eps_thin = 0.0001 eps_far = 0.01
! max_pts = 12 max_pts_inc_st = 1 max_pts_inc_nr = 1 rate_pts = 2.5 next_ratio = 1.5 max_images=500000
! auto_fixed_lambda = 0 increase_rate = 0.1 min_lambda = 100 max_lambda = 1e+006
