! 
# GHZ S MA R 50
! Nport = 1
2.40000000000000e+000 9.68837890845119e-001 2.71351399956903e+001
2.50000000000000e+000 9.68176746750084e-001 1.91090739307343e+001
2.60000000000000e+000 9.64610646462729e-001 1.05171090752092e+001
2.70000000000000e+000 9.55683907856663e-001 9.95991385183914e-001
2.80000000000000e+000 9.36797015819273e-001 -9.95711064057814e+000
2.90000000000000e+000 8.99397543813726e-001 -2.30427650450280e+001
3.00000000000000e+000 8.28966067816080e-001 -3.91887762362010e+001
3.10000000000000e+000 7.05343021199411e-001 -5.94893626800130e+001
3.20000000000000e+000 5.17247019621658e-001 -8.49588556868826e+001
3.30000000000000e+000 2.93005569154375e-001 -1.18363704781607e+002
3.40000000000000e+000 1.20113480487223e-001 1.76589790450992e+002
3.50000000000000e+000 1.50074466994271e-001 8.26605196501902e+001
3.60000000000000e+000 2.22336165156727e-001 4.32983772013770e+001
3.70000000000000e+000 2.39750751764761e-001 1.44942074650904e+001
3.80000000000000e+000 1.93787438793004e-001 -1.88332193890537e+001
3.90000000000000e+000 1.14893350051543e-001 -8.40770013247845e+001
4.00000000000000e+000 1.86225011462190e-001 -1.78551313810676e+002
4.10000000000000e+000 3.48802994547548e-001 1.40249185995703e+002
4.20000000000000e+000 4.85872876614417e-001 1.15708947143963e+002
4.30000000000000e+000 5.82530942712152e-001 9.84294664854170e+001
4.40000000000000e+000 6.48035135222761e-001 8.55778182356937e+001

! acs =  6 12 5 8 3 5 4
! insert_points = 3
! eps2d = 3e-005 3e-005 eps3d = 0.0001 0.0001
! max_factor = 2.5 extract_factor = 0.2 far_factor=0.5 eps_thin = 0.0001 eps_far = 0.01
! max_pts = 12 max_pts_inc_st = 1 max_pts_inc_nr = 1 rate_pts = 2.5 next_ratio = 1.5 max_images=500000
! auto_fixed_lambda = 0 increase_rate = 0.1 min_lambda = 100 max_lambda = 1e+006
