! 
# GHZ S MA R 50
! Nport = 1
2.80000000000000e+000 9.71732913497934e-001 -1.05342548834862e+001
2.90000000000000e+000 9.53479102380997e-001 -2.19121168731223e+001
3.00000000000000e+000 9.17159248290262e-001 -3.54171674355925e+001
3.10000000000000e+000 8.49435666045469e-001 -5.18468224898500e+001
3.20000000000000e+000 7.33622568337834e-001 -7.21874538006203e+001
3.30000000000000e+000 5.58503100473046e-001 -9.72668941240546e+001
3.40000000000000e+000 3.46444067956351e-001 -1.28720002319449e+002
3.50000000000000e+000 1.61774179128790e-001 -1.78296687309181e+002
3.60000000000000e+000 1.24371773272037e-001 8.98600618498430e+001
3.70000000000000e+000 1.91007220463349e-001 3.68830659056580e+001
3.80000000000000e+000 2.29805752789470e-001 4.63560278689391e+000
3.90000000000000e+000 2.27266018022235e-001 -2.63602390101572e+001
4.00000000000000e+000 1.97182322120831e-001 -6.49675513537170e+001
4.10000000000000e+000 1.82456732526800e-001 -1.17845955633825e+002
4.20000000000000e+000 2.31706281773998e-001 -1.69975179985552e+002
4.30000000000000e+000 3.21869862357091e-001 1.54523467674614e+002
4.40000000000000e+000 4.13788300428307e-001 1.30489979618861e+002
4.50000000000000e+000 4.92019293678170e-001 1.12914332352361e+002
4.60000000000000e+000 5.54309795875146e-001 9.93774247439641e+001
4.70000000000000e+000 6.02898401418776e-001 8.85843794980992e+001
4.80000000000000e+000 6.40822842197993e-001 7.97473422489308e+001

! acs =  6 12 5 8 3 5 4
! insert_points = 3
! eps2d = 3e-005 3e-005 eps3d = 0.0001 0.0001
! max_factor = 2.5 extract_factor = 0.2 far_factor=0.5 eps_thin = 0.0001 eps_far = 0.01
! max_pts = 12 max_pts_inc_st = 1 max_pts_inc_nr = 1 rate_pts = 2.5 next_ratio = 1.5 max_images=500000
! auto_fixed_lambda = 0 increase_rate = 0.1 min_lambda = 100 max_lambda = 1e+006
