! 
# GHZ S MA R 50
! Nport = 1
2.80000000000000e+000 9.66232971002395e-001 3.49209591791241e-001
2.90000000000000e+000 9.52722302198159e-001 -1.17872438881638e+001
3.00000000000000e+000 9.26573491953677e-001 -2.59195670701163e+001
3.10000000000000e+000 8.78843989527771e-001 -4.27673180643826e+001
3.20000000000000e+000 8.00840021125205e-001 -6.30350160470026e+001
3.30000000000000e+000 6.86023571236907e-001 -8.78419352430201e+001
3.40000000000000e+000 5.41354924955330e-001 -1.17889777279013e+002
3.50000000000000e+000 3.99807764119124e-001 -1.54222872254379e+002
3.60000000000000e+000 3.00481779745783e-001 1.62729014780236e+002
3.70000000000000e+000 2.53948976519171e-001 1.17599949694462e+002
3.80000000000000e+000 2.29203607126034e-001 7.66401705903386e+001
3.90000000000000e+000 1.89354334308718e-001 3.74138365792256e+001
4.00000000000000e+000 1.25051050182492e-001 -1.54039152795980e+001
4.10000000000000e+000 1.24694734356682e-001 -1.09442676396809e+002
4.20000000000000e+000 2.51214747596359e-001 -1.68119247134651e+002
4.30000000000000e+000 3.91743498524161e-001 1.59590455502396e+002
4.40000000000000e+000 5.04620695342197e-001 1.36814752264001e+002
4.50000000000000e+000 5.85783326900930e-001 1.19633238762531e+002
4.60000000000000e+000 6.42556086813720e-001 1.06263353524131e+002
4.70000000000000e+000 6.82766392866527e-001 9.55742867711583e+001
4.80000000000000e+000 7.12053166859042e-001 8.68071203814047e+001

! acs =  6 12 5 8 3 5 4
! insert_points = 3
! eps2d = 3e-005 3e-005 eps3d = 0.0001 0.0001
! max_factor = 2.5 extract_factor = 0.2 far_factor=0.5 eps_thin = 0.0001 eps_far = 0.01
! max_pts = 12 max_pts_inc_st = 1 max_pts_inc_nr = 1 rate_pts = 2.5 next_ratio = 1.5 max_images=500000
! auto_fixed_lambda = 0 increase_rate = 0.1 min_lambda = 100 max_lambda = 1e+006
