! 
# GHZ S MA R 50
! Nport = 1
2.80000000000000e+000 9.54168937324898e-001 2.66671303825046e+001
2.90000000000000e+000 9.46349916219275e-001 1.63811233905408e+001
3.00000000000000e+000 9.32886200282883e-001 4.88142226898189e+000
3.10000000000000e+000 9.10175551594012e-001 -8.29349272285783e+000
3.20000000000000e+000 8.72774279242081e-001 -2.37402309180597e+001
3.30000000000000e+000 8.13581068376810e-001 -4.21847101166865e+001
3.40000000000000e+000 7.26463975913903e-001 -6.44279189047220e+001
3.50000000000000e+000 6.13134690915977e-001 -9.12571762150844e+001
3.60000000000000e+000 4.90963645468032e-001 -1.23402152284770e+002
3.70000000000000e+000 3.89482351125131e-001 -1.61091409557787e+002
3.80000000000000e+000 3.28724797466620e-001 1.57834795618331e+002
3.90000000000000e+000 2.98294608362751e-001 1.17679303661856e+002
4.00000000000000e+000 2.67552901180094e-001 7.87511789852635e+001
4.10000000000000e+000 2.13009030242515e-001 3.27549198400326e+001
4.20000000000000e+000 1.72363980390790e-001 -4.35994575449113e+001
4.30000000000000e+000 2.88210240576724e-001 -1.24271318316806e+002
4.40000000000000e+000 4.71519723553571e-001 -1.71501636794970e+002
4.50000000000000e+000 6.08394892074438e-001 1.57256035293171e+002
4.60000000000000e+000 6.89939167232638e-001 1.35280174020272e+002
4.70000000000000e+000 7.37245537284024e-001 1.19186785826373e+002
4.80000000000000e+000 7.66236009387267e-001 1.06868747096463e+002

! acs =  6 12 5 8 3 5 4
! insert_points = 3
! eps2d = 3e-005 3e-005 eps3d = 0.0001 0.0001
! max_factor = 2.5 extract_factor = 0.2 far_factor=0.5 eps_thin = 0.0001 eps_far = 0.01
! max_pts = 12 max_pts_inc_st = 1 max_pts_inc_nr = 1 rate_pts = 2.5 next_ratio = 1.5 max_images=500000
! auto_fixed_lambda = 0 increase_rate = 0.1 min_lambda = 100 max_lambda = 1e+006
