! 
# GHZ S MA R 50
! Nport = 1
2.80000000000000e+000 9.57883408319466e-001 4.30440804939262e+001
2.90000000000000e+000 9.54679738181492e-001 3.38100567034599e+001
3.00000000000000e+000 9.48863500969272e-001 2.37769519961771e+001
3.10000000000000e+000 9.38643093110770e-001 1.26352059428500e+001
3.20000000000000e+000 9.21149216238794e-001 -1.95950807906508e-002
3.30000000000000e+000 8.91988532726432e-001 -1.47049508769401e+001
3.40000000000000e+000 8.45270420068718e-001 -3.20448036900877e+001
3.50000000000000e+000 7.75008888618834e-001 -5.27268926160335e+001
3.60000000000000e+000 6.79881304903894e-001 -7.73575121382058e+001
3.70000000000000e+000 5.70216934328656e-001 -1.06318271003498e+002
3.80000000000000e+000 4.68555359997611e-001 -1.39486236081263e+002
3.90000000000000e+000 3.96036018994318e-001 -1.75409343734762e+002
4.00000000000000e+000 3.54223315235423e-001 1.49017294526713e+002
4.10000000000000e+000 3.24002247434465e-001 1.15926091945816e+002
4.20000000000000e+000 2.79993846977996e-001 8.37864076466631e+001
4.30000000000000e+000 2.01288688794845e-001 4.54489182879198e+001
4.40000000000000e+000 1.14814538538333e-001 -3.32817002041398e+001
4.50000000000000e+000 2.30892392365628e-001 -1.29852000676835e+002
4.60000000000000e+000 4.26664550671379e-001 -1.73227098544432e+002
4.70000000000000e+000 5.74713750330958e-001 1.58173457716907e+002
4.80000000000000e+000 6.65234594616986e-001 1.37548087724570e+002

! acs =  6 12 5 8 3 5 4
! insert_points = 3
! eps2d = 3e-005 3e-005 eps3d = 0.0001 0.0001
! max_factor = 2.5 extract_factor = 0.2 far_factor=0.5 eps_thin = 0.0001 eps_far = 0.01
! max_pts = 12 max_pts_inc_st = 1 max_pts_inc_nr = 1 rate_pts = 2.5 next_ratio = 1.5 max_images=500000
! auto_fixed_lambda = 0 increase_rate = 0.1 min_lambda = 100 max_lambda = 1e+006
