! 
# GHZ S MA R 50
! Nport = 1
3.00000000000000e+000 9.63595214734247e-001 -1.30124608264022e+001
3.10000000000000e+000 9.41239055335055e-001 -2.43664122826250e+001
3.20000000000000e+000 8.99583407322863e-001 -3.78076072603016e+001
3.30000000000000e+000 8.26026943058318e-001 -5.40843972445104e+001
3.40000000000000e+000 7.06154343679216e-001 -7.40090206455385e+001
3.50000000000000e+000 5.35047432505127e-001 -9.84441499685878e+001
3.60000000000000e+000 3.36600934529373e-001 -1.29697143045932e+002
3.70000000000000e+000 1.73026823658399e-001 1.79643050908511e+002
3.80000000000000e+000 1.52584215855539e-001 9.92180675871287e+001
3.90000000000000e+000 2.24492072290747e-001 5.24073560942928e+001
4.00000000000000e+000 2.79334947925722e-001 2.47127678527457e+001
4.10000000000000e+000 3.00009960362728e-001 1.53735567484257e+000
4.20000000000000e+000 2.87266348359419e-001 -2.21746158294426e+001
4.30000000000000e+000 2.47646516335860e-001 -5.04207138600926e+001
4.40000000000000e+000 2.01137520932757e-001 -8.90213567042129e+001
4.50000000000000e+000 1.91917979199894e-001 -1.39963042078633e+002
4.60000000000000e+000 2.45148812531636e-001 1.75119833360333e+002
4.70000000000000e+000 3.27205222398847e-001 1.45080498553912e+002
4.80000000000000e+000 4.08374842923622e-001 1.24326829164387e+002
4.90000000000000e+000 4.78221763324283e-001 1.08859338020530e+002
5.00000000000000e+000 5.35233672072170e-001 9.67355693985923e+001

! acs =  6 12 5 8 3 5 4
! insert_points = 3
! eps2d = 3e-005 3e-005 eps3d = 0.0001 0.0001
! max_factor = 2.5 extract_factor = 0.2 far_factor=0.5 eps_thin = 0.0001 eps_far = 0.01
! max_pts = 12 max_pts_inc_st = 1 max_pts_inc_nr = 1 rate_pts = 2.5 next_ratio = 1.5 max_images=500000
! auto_fixed_lambda = 0 increase_rate = 0.1 min_lambda = 100 max_lambda = 1e+006
