! 
# GHZ S MA R 50
! Nport = 1
2.80000000000000e+000 9.75484347583068e-001 1.95214267440374e+001
2.90000000000000e+000 9.73668703877850e-001 1.12978296820395e+001
3.00000000000000e+000 9.68861555082209e-001 2.44039502760513e+000
3.10000000000000e+000 9.58966709680783e-001 -7.32467240296501e+000
3.20000000000000e+000 9.40431717145449e-001 -1.83536125236911e+001
3.30000000000000e+000 9.07443013621031e-001 -3.11015515498377e+001
3.40000000000000e+000 8.50894553363860e-001 -4.61325245477097e+001
3.50000000000000e+000 7.58718592942835e-001 -6.40164350310933e+001
3.60000000000000e+000 6.21136308695667e-001 -8.51437372163605e+001
3.70000000000000e+000 4.42289929896568e-001 -1.09589500872435e+002
3.80000000000000e+000 2.48093221259075e-001 -1.38036990102441e+002
3.90000000000000e+000 7.63869904083206e-002 1.77181429030316e+002
4.00000000000000e+000 7.78831143118297e-002 2.14600554492384e+001
4.10000000000000e+000 1.71298535902395e-001 -2.39365851511026e+001
4.20000000000000e+000 2.39768660420800e-001 -6.23161185370997e+001
4.30000000000000e+000 3.00920728890448e-001 -1.02059296173445e+002
4.40000000000000e+000 3.70290098487423e-001 -1.40316616447475e+002
4.50000000000000e+000 4.46301396405200e-001 -1.73349886535691e+002
4.60000000000000e+000 5.17720858952403e-001 1.60010752884135e+002
4.70000000000000e+000 5.77408826238220e-001 1.39035893248800e+002
4.80000000000000e+000 6.24536590424366e-001 1.22484528734105e+002

! acs =  6 12 5 8 3 5 4
! insert_points = 3
! eps2d = 3e-005 3e-005 eps3d = 0.0001 0.0001
! max_factor = 2.5 extract_factor = 0.2 far_factor=0.5 eps_thin = 0.0001 eps_far = 0.01
! max_pts = 12 max_pts_inc_st = 1 max_pts_inc_nr = 1 rate_pts = 2.5 next_ratio = 1.5 max_images=500000
! auto_fixed_lambda = 0 increase_rate = 0.1 min_lambda = 100 max_lambda = 1e+006
