! 
# GHZ S MA R 50
! Nport = 1
3.00000000000000e+000 9.65115710511032e-001 2.12944110783316e+001
3.10000000000000e+000 9.63359438919093e-001 1.41450732338056e+001
3.20000000000000e+000 9.58656202205187e-001 6.48604223758833e+000
3.30000000000000e+000 9.49042865930739e-001 -1.91317975467519e+000
3.40000000000000e+000 9.31246511453783e-001 -1.13501112659721e+001
3.50000000000000e+000 8.99902061826188e-001 -2.22026288886103e+001
3.60000000000000e+000 8.46782994334792e-001 -3.49179516273872e+001
3.70000000000000e+000 7.61040929991942e-001 -4.99509821083729e+001
3.80000000000000e+000 6.33056581251185e-001 -6.75729358755747e+001
3.90000000000000e+000 4.64697544379158e-001 -8.77117601548980e+001
4.00000000000000e+000 2.77572687097557e-001 -1.10552108614967e+002
4.10000000000000e+000 1.06071770082198e-001 -1.42478480233233e+002
4.20000000000000e+000 5.18211666991736e-002 7.95823907719091e+001
4.30000000000000e+000 1.34895617918171e-001 3.18127209997816e+001
4.40000000000000e+000 1.78882723197644e-001 5.12825787991654e+000
4.50000000000000e+000 1.80609989387887e-001 -2.45852156677238e+001
4.60000000000000e+000 1.55998961976568e-001 -6.76552884528109e+001
4.70000000000000e+000 1.63935432036992e-001 -1.30034453926531e+002
4.80000000000000e+000 2.48874124436246e-001 1.78563888272513e+002
4.90000000000000e+000 3.61112859635325e-001 1.46235129120709e+002
5.00000000000000e+000 4.61619020871990e-001 1.23883663143438e+002

! acs =  6 12 5 8 3 5 4
! insert_points = 3
! eps2d = 3e-005 3e-005 eps3d = 0.0001 0.0001
! max_factor = 2.5 extract_factor = 0.2 far_factor=0.5 eps_thin = 0.0001 eps_far = 0.01
! max_pts = 12 max_pts_inc_st = 1 max_pts_inc_nr = 1 rate_pts = 2.5 next_ratio = 1.5 max_images=500000
! auto_fixed_lambda = 0 increase_rate = 0.1 min_lambda = 100 max_lambda = 1e+006
