! 
# GHZ S MA R 50
! Nport = 1
3.00000000000000e+000 9.61007467458915e-001 2.52954691848080e+001
3.10000000000000e+000 9.57706820993036e-001 1.67729514416735e+001
3.20000000000000e+000 9.50982362383523e-001 7.50840784124304e+000
3.30000000000000e+000 9.38621283460888e-001 -2.78688541130883e+000
3.40000000000000e+000 9.17043809738110e-001 -1.44827924122132e+001
3.50000000000000e+000 8.80693029342171e-001 -2.80106977391101e+001
3.60000000000000e+000 8.24158975683153e-001 -4.38739973233297e+001
3.70000000000000e+000 7.39792255320979e-001 -6.27579312871469e+001
3.80000000000000e+000 6.25231616672633e-001 -8.51406777393535e+001
3.90000000000000e+000 4.91202193452255e-001 -1.11620754480566e+002
4.00000000000000e+000 3.61873231985009e-001 -1.43301231959271e+002
4.10000000000000e+000 2.64485520862330e-001 1.78543149716998e+002
4.20000000000000e+000 2.10133476450918e-001 1.36016445328951e+002
4.30000000000000e+000 1.78847484884101e-001 9.51081254110655e+001
4.40000000000000e+000 1.36268297688976e-001 5.52396634029671e+001
4.50000000000000e+000 6.97607898001880e-002 -8.88357179425549e+000
4.60000000000000e+000 1.20224175379667e-001 -1.26866401741359e+002
4.70000000000000e+000 2.77538680831095e-001 -1.72154689287027e+002
4.80000000000000e+000 4.28802538678129e-001 1.58760204584517e+002
4.90000000000000e+000 5.42550206012087e-001 1.36761764077154e+002
5.00000000000000e+000 6.19423858074511e-001 1.19870205245239e+002

! acs =  6 12 5 8 3 5 4
! insert_points = 3
! eps2d = 3e-005 3e-005 eps3d = 0.0001 0.0001
! max_factor = 2.5 extract_factor = 0.2 far_factor=0.5 eps_thin = 0.0001 eps_far = 0.01
! max_pts = 12 max_pts_inc_st = 1 max_pts_inc_nr = 1 rate_pts = 2.5 next_ratio = 1.5 max_images=500000
! auto_fixed_lambda = 0 increase_rate = 0.1 min_lambda = 100 max_lambda = 1e+006
