! 
# GHZ S MA R 50
! Nport = 1
3.00000000000000e+000 9.65289568499293e-001 2.75360251039446e+001
3.10000000000000e+000 9.61496770549331e-001 1.78946892180827e+001
3.20000000000000e+000 9.54413796103801e-001 7.38696970257708e+000
3.30000000000000e+000 9.42044090697138e-001 -4.26821247404569e+000
3.40000000000000e+000 9.21342466613606e-001 -1.74155483962217e+001
3.50000000000000e+000 8.88147773649907e-001 -3.24292853500954e+001
3.60000000000000e+000 8.38522998426266e-001 -4.97891961990980e+001
3.70000000000000e+000 7.67336852484935e-001 -6.99177127055860e+001
3.80000000000000e+000 6.75037870885984e-001 -9.30946051401567e+001
3.90000000000000e+000 5.69631621578398e-001 -1.19480648748102e+002
4.00000000000000e+000 4.65745329542235e-001 -1.49108826605218e+002
4.10000000000000e+000 3.77245514221670e-001 1.78223722872923e+002
4.20000000000000e+000 3.08465127348226e-001 1.43101344667228e+002
4.30000000000000e+000 2.51891605165839e-001 1.05606323533711e+002
4.40000000000000e+000 1.96656806938892e-001 6.23051801026467e+001
4.50000000000000e+000 1.54214164330478e-001 1.39872909254020e+000
4.60000000000000e+000 1.93077717136991e-001 -7.31340270543671e+001
4.70000000000000e+000 3.15187214349088e-001 -1.25158072267944e+002
4.80000000000000e+000 4.48260389663368e-001 -1.60511215971846e+002
4.90000000000000e+000 5.54567451191385e-001 1.73089753845119e+002
5.00000000000000e+000 6.28698181520477e-001 1.52762791347356e+002

! acs =  6 12 5 8 3 5 4
! insert_points = 3
! eps2d = 3e-005 3e-005 eps3d = 0.0001 0.0001
! max_factor = 2.5 extract_factor = 0.2 far_factor=0.5 eps_thin = 0.0001 eps_far = 0.01
! max_pts = 12 max_pts_inc_st = 1 max_pts_inc_nr = 1 rate_pts = 2.5 next_ratio = 1.5 max_images=500000
! auto_fixed_lambda = 0 increase_rate = 0.1 min_lambda = 100 max_lambda = 1e+006
