! 
# GHZ S MA R 50
! Nport = 1
3.20000000000000e+000 9.35084595643021e-001 3.97483138582056e+001
3.31500000000000e+000 9.33289698589128e-001 3.29555499896365e+001
3.43000000000000e+000 9.29574164388009e-001 2.59097641569744e+001
3.54500000000000e+000 9.22754543106979e-001 1.84378294591289e+001
3.66000000000000e+000 9.10913865936653e-001 1.03216501146854e+001
3.77500000000000e+000 8.90924206956891e-001 1.28409384875331e+000
3.89000000000000e+000 8.57877885912036e-001 -9.01273566267833e+000
4.00500000000000e+000 8.04829006400938e-001 -2.09823212797768e+001
4.12000000000000e+000 7.22251076517042e-001 -3.50493625396991e+001
4.23500000000000e+000 6.02386726859179e-001 -5.14448574178744e+001
4.35000000000000e+000 4.47671811612991e-001 -7.00904659753660e+001
4.46500000000000e+000 2.77715103112613e-001 -9.09510279814943e+001
4.58000000000000e+000 1.23726629142054e-001 -1.16819320534903e+002
4.69500000000000e+000 2.61991305649299e-002 1.61620523643760e+002
4.81000000000000e+000 5.02671874928659e-002 5.90043387352420e+001
4.92500000000000e+000 1.79650493549124e-002 1.61906712768046e+001
5.04000000000000e+000 1.22907492415454e-001 -1.75406504935825e+002
5.15500000000000e+000 3.43022635843470e-001 1.50558684616431e+002
5.27000000000000e+000 5.30077717669802e-001 1.21479089971689e+002
5.38500000000000e+000 6.37295475411988e-001 1.00300444227904e+002
5.50000000000000e+000 6.94433606104407e-001 8.54542195845157e+001

! acs =  6 12 5 8 3 5 4
! insert_points = 3
! eps2d = 3e-005 3e-005 eps3d = 0.0001 0.0001
! max_factor = 2.5 extract_factor = 0.2 far_factor=0.5 eps_thin = 0.0001 eps_far = 0.01
! max_pts = 12 max_pts_inc_st = 1 max_pts_inc_nr = 1 rate_pts = 2.5 next_ratio = 1.5 max_images=500000
! auto_fixed_lambda = 0 increase_rate = 0.1 min_lambda = 100 max_lambda = 1e+006
