! 
# GHZ S MA R 50
! Nport = 1
3.20000000000000e+000 9.41232116100466e-001 4.34334239540080e+001
3.31500000000000e+000 9.38332547223649e-001 3.58224237002608e+001
3.43000000000000e+000 9.33219147014073e-001 2.78102388270687e+001
3.54500000000000e+000 9.24482078678030e-001 1.91900740123820e+001
3.66000000000000e+000 9.09846228572779e-001 9.69460861775551e+000
3.77500000000000e+000 8.85659322099487e-001 -1.02388349796382e+000
3.89000000000000e+000 8.46259018919064e-001 -1.34090627231317e+001
4.00500000000000e+000 7.83676437242832e-001 -2.79961761553580e+001
4.12000000000000e+000 6.89051803143061e-001 -4.53643560032569e+001
4.23500000000000e+000 5.58217155931322e-001 -6.60949727381460e+001
4.35000000000000e+000 4.00923316878752e-001 -9.11263657891277e+001
4.46500000000000e+000 2.45496004259342e-001 -1.23842283021784e+002
4.58000000000000e+000 1.36853967577570e-001 -1.76209552367689e+002
4.69500000000000e+000 1.20229335039479e-001 1.13379776856398e+002
4.81000000000000e+000 1.36567749355051e-001 6.24873584263181e+001
4.92500000000000e+000 1.17242316730282e-001 1.12640555174171e+001
5.04000000000000e+000 1.17101020040205e-001 -8.73613059055116e+001
5.15500000000000e+000 2.86839125260449e-001 -1.61197215421370e+002
5.27000000000000e+000 4.82730870800044e-001 1.57370814660806e+002
5.38500000000000e+000 6.10694940431487e-001 1.29233749238823e+002
5.50000000000000e+000 6.80864024484431e-001 1.09788365912698e+002

! acs =  6 12 5 8 3 5 4
! insert_points = 3
! eps2d = 3e-005 3e-005 eps3d = 0.0001 0.0001
! max_factor = 2.5 extract_factor = 0.2 far_factor=0.5 eps_thin = 0.0001 eps_far = 0.01
! max_pts = 12 max_pts_inc_st = 1 max_pts_inc_nr = 1 rate_pts = 2.5 next_ratio = 1.5 max_images=500000
! auto_fixed_lambda = 0 increase_rate = 0.1 min_lambda = 100 max_lambda = 1e+006
