! 
# GHZ S MA R 50
! Nport = 1
3.20000000000000e+000 9.48425196393200e-001 4.76217882043992e+001
3.31500000000000e+000 9.44497451450739e-001 3.89978491533186e+001
3.43000000000000e+000 9.38107967205374e-001 2.97596625121234e+001
3.54500000000000e+000 9.27675024718613e-001 1.96578905343919e+001
3.66000000000000e+000 9.10680595048436e-001 8.36631616124712e+000
3.77500000000000e+000 8.83210911386109e-001 -4.54007620966671e+000
3.89000000000000e+000 8.39580138513944e-001 -1.96003430380829e+001
4.00500000000000e+000 7.72776296570623e-001 -3.74605801483836e+001
4.12000000000000e+000 6.77357709879050e-001 -5.88407876813774e+001
4.23500000000000e+000 5.56104362987338e-001 -8.45629977866873e+001
4.35000000000000e+000 4.26924929085824e-001 -1.15837985473993e+002
4.46500000000000e+000 3.20634909193922e-001 -1.54319426871203e+002
4.58000000000000e+000 2.62993925504067e-001 1.61000869257422e+002
4.69500000000000e+000 2.47395127718738e-001 1.16901135322810e+002
4.81000000000000e+000 2.40132652750601e-001 7.59906271402668e+001
4.92500000000000e+000 2.17304741620723e-001 3.06064211201912e+001
5.04000000000000e+000 2.02684602179045e-001 -3.46447063447083e+001
5.15500000000000e+000 2.94182155957880e-001 -1.08164312036896e+002
5.27000000000000e+000 4.61328282128534e-001 -1.59533447736972e+002
5.38500000000000e+000 5.96656577507181e-001 1.65550054671472e+002
5.50000000000000e+000 6.77716355852745e-001 1.41122212364361e+002

! acs =  6 12 5 8 3 5 4
! insert_points = 3
! eps2d = 3e-005 3e-005 eps3d = 0.0001 0.0001
! max_factor = 2.5 extract_factor = 0.2 far_factor=0.5 eps_thin = 0.0001 eps_far = 0.01
! max_pts = 12 max_pts_inc_st = 1 max_pts_inc_nr = 1 rate_pts = 2.5 next_ratio = 1.5 max_images=500000
! auto_fixed_lambda = 0 increase_rate = 0.1 min_lambda = 100 max_lambda = 1e+006
