! 
# GHZ S MA R 50
! Nport = 1
3.20000000000000e+000 9.48896561381437e-001 3.84450671160962e+001
3.32000000000000e+000 9.48466683235021e-001 3.16522632261742e+001
3.44000000000000e+000 9.46507500964016e-001 2.46873282063093e+001
3.56000000000000e+000 9.42008599111542e-001 1.73933874051190e+001
3.68000000000000e+000 9.33297143382308e-001 9.57629963197862e+000
3.80000000000000e+000 9.17551380838708e-001 9.91437012372278e-001
3.92000000000000e+000 8.90057761651052e-001 -8.65578751180388e+000
4.04000000000000e+000 8.43890475203215e-001 -1.97084144432169e+001
4.16000000000000e+000 7.68124308056580e-001 -3.25182082399250e+001
4.28000000000000e+000 6.50701973942656e-001 -4.70547984758026e+001
4.40000000000000e+000 4.88025773292161e-001 -6.22676531262644e+001
4.52000000000000e+000 2.98640784681067e-001 -7.42174820704007e+001
4.64000000000000e+000 1.33963567297917e-001 -6.51444422436440e+001
4.76000000000000e+000 1.24799851052693e-001 -9.84473336279103e+000
4.88000000000000e+000 2.09232213404256e-001 -6.13047115522188e+000
5.00000000000000e+000 2.62654895990082e-001 -2.51135351884746e+001
5.12000000000000e+000 2.75733979878352e-001 -5.72903402483187e+001
5.24000000000000e+000 2.77075277023726e-001 -1.05460726839062e+002
5.36000000000000e+000 3.29102048542255e-001 -1.61158412197467e+002
5.48000000000000e+000 4.30257416913682e-001 1.55096891181702e+002
5.60000000000000e+000 5.26547218050715e-001 1.25329574237869e+002

! acs =  6 12 5 8 3 5 4
! insert_points = 3
! eps2d = 3e-005 3e-005 eps3d = 0.0001 0.0001
! max_factor = 2.5 extract_factor = 0.2 far_factor=0.5 eps_thin = 0.0001 eps_far = 0.01
! max_pts = 12 max_pts_inc_st = 1 max_pts_inc_nr = 1 rate_pts = 2.5 next_ratio = 1.5 max_images=500000
! auto_fixed_lambda = 0 increase_rate = 0.1 min_lambda = 100 max_lambda = 1e+006
