! 
# GHZ S MA R 50
! Nport = 1
3.50000000000000e+000 9.36522316003523e-001 2.83677622462318e+001
3.61000000000000e+000 9.25454024344619e-001 1.82199555709586e+001
3.72000000000000e+000 9.07226152578867e-001 6.85408086253328e+000
3.83000000000000e+000 8.76342211141449e-001 -5.86845793783389e+000
3.94000000000000e+000 8.39016530837013e-001 -2.04719678293537e+001
4.05000000000000e+000 7.81001413279546e-001 -3.79205777367758e+001
4.16000000000000e+000 6.98938667509950e-001 -5.84645852344389e+001
4.27000000000000e+000 5.96264680999019e-001 -8.26336403329327e+001
4.38000000000000e+000 4.85977688104280e-001 -1.10977453107204e+002
4.49000000000000e+000 3.88855150427197e-001 -1.43895158229221e+002
4.60000000000000e+000 3.21902672890484e-001 1.79421648491754e+002
4.71000000000000e+000 2.84265260656814e-001 1.41816531819455e+002
4.82000000000000e+000 2.56524308328161e-001 1.05032743753106e+002
4.93000000000000e+000 2.16057182945746e-001 6.51006313123308e+001
5.04000000000000e+000 1.64117955253855e-001 6.04622250757994e+000
5.15000000000000e+000 2.08096210713347e-001 -8.09785950524276e+001
5.26000000000000e+000 3.83299653462656e-001 -1.39965592228782e+002
5.37000000000000e+000 5.51225551803070e-001 -1.78182027275810e+002
5.48000000000000e+000 6.57441477888469e-001 1.54824541856057e+002
5.59000000000000e+000 7.16149872222675e-001 1.35312900355448e+002
5.70000000000000e+000 7.49195642706298e-001 1.20691348241202e+002

! acs =  6 12 5 8 3 5 4
! insert_points = 3
! eps2d = 3e-005 3e-005 eps3d = 0.0001 0.0001
! max_factor = 2.5 extract_factor = 0.2 far_factor=0.5 eps_thin = 0.0001 eps_far = 0.01
! max_pts = 12 max_pts_inc_st = 1 max_pts_inc_nr = 1 rate_pts = 2.5 next_ratio = 1.5 max_images=500000
! auto_fixed_lambda = 0 increase_rate = 0.1 min_lambda = 100 max_lambda = 1e+006
