! 
# GHZ S MA R 50
! Nport = 1
3.20000000000000e+000 9.44398422998901e-001 4.72272336079043e+001
3.32000000000000e+000 9.42753101004078e-001 3.92360193894762e+001
3.44000000000000e+000 9.39563929595724e-001 3.08886744391498e+001
3.56000000000000e+000 9.33792299425033e-001 2.19870814931752e+001
3.68000000000000e+000 9.23777273584309e-001 1.22789053382811e+001
3.80000000000000e+000 9.06833372885336e-001 1.43971908399390e+000
3.92000000000000e+000 8.78796676315214e-001 -1.09222639500163e+001
4.04000000000000e+000 8.34778814403047e-001 -2.53209196995644e+001
4.16000000000000e+000 7.67218877949222e-001 -4.23736550949314e+001
4.28000000000000e+000 6.71154438129627e-001 -6.26330615714770e+001
4.40000000000000e+000 5.50195075399302e-001 -8.66327582681983e+001
4.52000000000000e+000 4.21616484188285e-001 -1.14986509094314e+002
4.64000000000000e+000 3.11227369888109e-001 -1.48239974338390e+002
4.76000000000000e+000 2.34884897604713e-001 1.75351823021316e+002
4.88000000000000e+000 1.78386896705716e-001 1.42975384973284e+002
5.00000000000000e+000 1.10221640257986e-001 1.33036911159905e+002
5.12000000000000e+000 1.48919024955182e-001 -1.78802603934968e+002
5.24000000000000e+000 3.71814640275954e-001 1.69200245938137e+002
5.36000000000000e+000 5.64766286405294e-001 1.42574586056539e+002
5.48000000000000e+000 6.68338237902891e-001 1.20818572549198e+002
5.60000000000000e+000 7.18988650608453e-001 1.04903275854148e+002

! acs =  6 12 5 8 3 5 4
! insert_points = 3
! eps2d = 3e-005 3e-005 eps3d = 0.0001 0.0001
! max_factor = 2.5 extract_factor = 0.2 far_factor=0.5 eps_thin = 0.0001 eps_far = 0.01
! max_pts = 12 max_pts_inc_st = 1 max_pts_inc_nr = 1 rate_pts = 2.5 next_ratio = 1.5 max_images=500000
! auto_fixed_lambda = 0 increase_rate = 0.1 min_lambda = 100 max_lambda = 1e+006
