! 
# GHZ S MA R 50
! Nport = 1
3.50000000000000e+000 9.49133133288724e-001 2.62191726828951e+001
3.62000000000000e+000 9.46698121841531e-001 1.88261477257153e+001
3.74000000000000e+000 9.41379854134726e-001 1.09748854161602e+001
3.86000000000000e+000 9.31382944808357e-001 2.45302070661960e+000
3.98000000000000e+000 9.13791512510342e-001 -7.00320411242574e+000
4.10000000000000e+000 8.84208294051401e-001 -1.77019523928840e+001
4.22000000000000e+000 8.36482928727119e-001 -3.00358846923320e+001
4.34000000000000e+000 7.61844902863598e-001 -4.43711302514534e+001
4.46000000000000e+000 6.53059854072459e-001 -6.08822973626610e+001
4.58000000000000e+000 5.10774804353531e-001 -7.93728199140803e+001
4.70000000000000e+000 3.49900204002483e-001 -9.91416505178734e+001
4.82000000000000e+000 1.96390885731707e-001 -1.18720098444058e+002
4.94000000000000e+000 7.61513836674450e-002 -1.30396735959986e+002
5.06000000000000e+000 3.90772867829493e-002 -7.59670173668349e+001
5.18000000000000e+000 9.15097804953214e-002 -9.01558585967497e+001
5.30000000000000e+000 1.82213123638968e-001 -1.37087480773481e+002
5.42000000000000e+000 3.19668502850160e-001 -1.78988693067315e+002
5.54000000000000e+000 4.57200852466361e-001 1.48095345275064e+002
5.66000000000000e+000 5.58671168430302e-001 1.23452054568846e+002
5.78000000000000e+000 6.25260238299223e-001 1.05288016421321e+002
5.90000000000000e+000 6.69272075621301e-001 9.16466023433958e+001

! acs =  6 12 5 8 3 5 4
! insert_points = 3
! eps2d = 3e-005 3e-005 eps3d = 0.0001 0.0001
! max_factor = 2.5 extract_factor = 0.2 far_factor=0.5 eps_thin = 0.0001 eps_far = 0.01
! max_pts = 12 max_pts_inc_st = 1 max_pts_inc_nr = 1 rate_pts = 2.5 next_ratio = 1.5 max_images=500000
! auto_fixed_lambda = 0 increase_rate = 0.1 min_lambda = 100 max_lambda = 1e+006
