! 
# GHZ S MA R 50
! Nport = 1
3.50000000000000e+000 9.53977316578572e-001 2.78276482581606e+001
3.62000000000000e+000 9.50960462775364e-001 1.96943780468767e+001
3.74000000000000e+000 9.44982015515783e-001 1.10122717864924e+001
3.86000000000000e+000 9.34215378598234e-001 1.55525904895517e+000
3.98000000000000e+000 9.15740256586169e-001 -8.95798644303362e+000
4.10000000000000e+000 8.85339508715393e-001 -2.08614570874179e+001
4.22000000000000e+000 8.36892268199663e-001 -3.45840662085567e+001
4.34000000000000e+000 7.62547269551616e-001 -5.05319055711761e+001
4.46000000000000e+000 6.56195923798449e-001 -6.90220215718990e+001
4.58000000000000e+000 5.18940456428111e-001 -9.02037289047298e+001
4.70000000000000e+000 3.64009244702449e-001 -1.14245045517352e+002
4.82000000000000e+000 2.13276271815558e-001 -1.42257810933137e+002
4.94000000000000e+000 8.65940538988580e-002 1.79361815168680e+002
5.06000000000000e+000 2.91513119709156e-002 3.55929476819523e+001
5.18000000000000e+000 1.03840772557793e-001 -4.69976954443946e+001
5.30000000000000e+000 2.00056123908523e-001 -9.79919128098553e+001
5.42000000000000e+000 3.25000601179462e-001 -1.42531894668124e+002
5.54000000000000e+000 4.52360233190965e-001 -1.79246884553493e+002
5.66000000000000e+000 5.51724474480888e-001 1.52168747985306e+002
5.78000000000000e+000 6.19143740694778e-001 1.30528083557403e+002
5.90000000000000e+000 6.64023095344056e-001 1.14046656496787e+002

! acs =  6 12 5 8 3 5 4
! insert_points = 3
! eps2d = 3e-005 3e-005 eps3d = 0.0001 0.0001
! max_factor = 2.5 extract_factor = 0.2 far_factor=0.5 eps_thin = 0.0001 eps_far = 0.01
! max_pts = 12 max_pts_inc_st = 1 max_pts_inc_nr = 1 rate_pts = 2.5 next_ratio = 1.5 max_images=500000
! auto_fixed_lambda = 0 increase_rate = 0.1 min_lambda = 100 max_lambda = 1e+006
