! 
# GHZ S MA R 50
! Nport = 1
3.50000000000000e+000 9.61277812301477e-001 3.14605482720330e+001
3.62000000000000e+000 9.58331588433262e-001 2.22563549514552e+001
3.74000000000000e+000 9.52888080332517e-001 1.24112426069123e+001
3.86000000000000e+000 9.43484324185059e-001 1.71286083226411e+000
3.98000000000000e+000 9.27924495217009e-001 -1.00971304218098e+001
4.10000000000000e+000 9.03094981580991e-001 -2.33237803026062e+001
4.22000000000000e+000 8.64806179944583e-001 -3.83190524814724e+001
4.34000000000000e+000 8.08245312185036e-001 -5.54389847899577e+001
4.46000000000000e+000 7.29607032889990e-001 -7.49991011917997e+001
4.58000000000000e+000 6.28832099685158e-001 -9.72312098814751e+001
4.70000000000000e+000 5.11906217739492e-001 -1.22334342580432e+002
4.82000000000000e+000 3.89519930085076e-001 -1.50715004038006e+002
4.94000000000000e+000 2.71495819464448e-001 1.76406550414924e+002
5.06000000000000e+000 1.62306339730318e-001 1.34356156603243e+002
5.18000000000000e+000 8.15825892582990e-002 5.46230336449131e+001
5.30000000000000e+000 1.47367386868009e-001 -4.86678949782247e+001
5.42000000000000e+000 2.94764538957819e-001 -9.96531778364224e+001
5.54000000000000e+000 4.43694615488107e-001 -1.37368008415175e+002
5.66000000000000e+000 5.59308568357164e-001 -1.67881711036478e+002
5.78000000000000e+000 6.35351372462759e-001 1.67835139457782e+002
5.90000000000000e+000 6.82710022366207e-001 1.48649649048571e+002

! acs =  6 12 5 8 3 5 4
! insert_points = 3
! eps2d = 3e-005 3e-005 eps3d = 0.0001 0.0001
! max_factor = 2.5 extract_factor = 0.2 far_factor=0.5 eps_thin = 0.0001 eps_far = 0.01
! max_pts = 12 max_pts_inc_st = 1 max_pts_inc_nr = 1 rate_pts = 2.5 next_ratio = 1.5 max_images=500000
! auto_fixed_lambda = 0 increase_rate = 0.1 min_lambda = 100 max_lambda = 1e+006
