! 
# GHZ S MA R 50
! Nport = 1
3.80000000000000e+000 9.51517836404174e-001 1.18182836092838e+001
3.91000000000000e+000 9.44862360494878e-001 3.16215493785771e+000
4.02000000000000e+000 9.33892097411333e-001 -6.25261030489156e+000
4.13000000000000e+000 9.16561253457657e-001 -1.66365335053964e+001
4.24000000000000e+000 8.90078588244578e-001 -2.82313699021074e+001
4.35000000000000e+000 8.50950424692835e-001 -4.12977082660030e+001
4.46000000000000e+000 7.95492591385697e-001 -5.60849257444752e+001
4.57000000000000e+000 7.21163599812015e-001 -7.27825136540637e+001
4.68000000000000e+000 6.28635494929257e-001 -9.14683767902136e+001
4.79000000000000e+000 5.23353806622330e-001 -1.12079525808242e+002
4.90000000000000e+000 4.14494168537115e-001 -1.34373406359105e+002
5.01000000000000e+000 3.10693783126390e-001 -1.57658036643796e+002
5.12000000000000e+000 2.15227022564212e-001 -1.79597364363959e+002
5.23000000000000e+000 1.28413395779159e-001 1.69634544078387e+002
5.34000000000000e+000 1.01124296649878e-001 -1.58010733934751e+002
5.45000000000000e+000 2.13298427235243e-001 -1.48676635749201e+002
5.56000000000000e+000 3.67342957675442e-001 -1.68587733544800e+002
5.67000000000000e+000 5.00431828524394e-001 1.67921533262086e+002
5.78000000000000e+000 5.91912820738672e-001 1.47175603116514e+002
5.89000000000000e+000 6.49441110954495e-001 1.30270438769284e+002
6.00000000000000e+000 6.86132720740298e-001 1.16667938742281e+002

! acs =  6 12 5 8 3 5 4
! insert_points = 3
! eps2d = 3e-005 3e-005 eps3d = 0.0001 0.0001
! max_factor = 2.5 extract_factor = 0.2 far_factor=0.5 eps_thin = 0.0001 eps_far = 0.01
! max_pts = 12 max_pts_inc_st = 1 max_pts_inc_nr = 1 rate_pts = 2.5 next_ratio = 1.5 max_images=500000
! auto_fixed_lambda = 0 increase_rate = 0.1 min_lambda = 100 max_lambda = 1e+006
