! 
# GHZ S MA R 50
! Nport = 1
3.80000000000000e+000 9.60597577228248e-001 9.73012547415339e+000
3.91000000000000e+000 9.56304162075270e-001 2.81184466970426e+000
4.02000000000000e+000 9.48440443015994e-001 -4.59731892298004e+000
4.13000000000000e+000 9.35166165150275e-001 -1.26582764357537e+001
4.24000000000000e+000 9.13737530266365e-001 -2.15604779476899e+001
4.35000000000000e+000 8.80202775315538e-001 -3.15151860737843e+001
4.46000000000000e+000 8.29276633625399e-001 -4.27274534255898e+001
4.57000000000000e+000 7.54940468330497e-001 -5.53247229136319e+001
4.68000000000000e+000 6.52630330604795e-001 -6.92166150823017e+001
4.79000000000000e+000 5.23311470290413e-001 -8.38632687784381e+001
4.90000000000000e+000 3.77307114925567e-001 -9.78549982782984e+001
5.01000000000000e+000 2.34374192630263e-001 -1.07495909872013e+002
5.12000000000000e+000 1.25519021973972e-001 -1.00194391779216e+002
5.23000000000000e+000 1.08877184145970e-001 -6.65552469289423e+001
5.34000000000000e+000 1.60121729212786e-001 -6.33157466534406e+001
5.45000000000000e+000 2.12523920572770e-001 -8.35794711063549e+001
5.56000000000000e+000 2.61469502038406e-001 -1.13811852548372e+002
5.67000000000000e+000 3.17464075144232e-001 -1.47309338284463e+002
5.78000000000000e+000 3.83016895858092e-001 -1.78577140708422e+002
5.89000000000000e+000 4.49928500053081e-001 1.55153283752378e+002
6.00000000000000e+000 5.09853544250032e-001 1.34078709355026e+002

! acs =  6 12 5 8 3 5 4
! insert_points = 3
! eps2d = 3e-005 3e-005 eps3d = 0.0001 0.0001
! max_factor = 2.5 extract_factor = 0.2 far_factor=0.5 eps_thin = 0.0001 eps_far = 0.01
! max_pts = 12 max_pts_inc_st = 1 max_pts_inc_nr = 1 rate_pts = 2.5 next_ratio = 1.5 max_images=500000
! auto_fixed_lambda = 0 increase_rate = 0.1 min_lambda = 100 max_lambda = 1e+006
