! 
# GHZ S MA R 50
! Nport = 1
3.80000000000000e+000 9.57571222550543e-001 1.18259861959235e+001
3.91000000000000e+000 9.51246704862124e-001 1.99882383952776e+000
4.02000000000000e+000 9.41184229470214e-001 -8.63830684107172e+000
4.13000000000000e+000 9.25807995575973e-001 -2.02574038653269e+001
4.24000000000000e+000 9.03202055771087e-001 -3.30421087312507e+001
4.35000000000000e+000 8.71097932033141e-001 -4.71679810369658e+001
4.46000000000000e+000 8.27438572190110e-001 -6.27726915876942e+001
4.57000000000000e+000 7.71034366859846e-001 -7.99235520597685e+001
4.68000000000000e+000 7.02328304474831e-001 -9.85841330234228e+001
4.79000000000000e+000 6.23570070399972e-001 -1.18598577217401e+002
4.90000000000000e+000 5.37722788008471e-001 -1.39692022449979e+002
5.01000000000000e+000 4.46139741894993e-001 -1.61448552242525e+002
5.12000000000000e+000 3.46068289043806e-001 1.76893913887902e+002
5.23000000000000e+000 2.30159034801781e-001 1.57839219788285e+002
5.34000000000000e+000 1.01196395069442e-001 1.61107431725649e+002
5.45000000000000e+000 1.46534618176615e-001 -1.30496495639079e+002
5.56000000000000e+000 3.34220528103735e-001 -1.41123743699433e+002
5.67000000000000e+000 4.98859778818392e-001 -1.63694423130838e+002
5.78000000000000e+000 6.09580630395958e-001 1.75058379914556e+002
5.89000000000000e+000 6.75361106407022e-001 1.57236344614420e+002
6.00000000000000e+000 7.13821992778307e-001 1.42608523510602e+002

! acs =  6 12 5 8 3 5 4
! insert_points = 3
! eps2d = 3e-005 3e-005 eps3d = 0.0001 0.0001
! max_factor = 2.5 extract_factor = 0.2 far_factor=0.5 eps_thin = 0.0001 eps_far = 0.01
! max_pts = 12 max_pts_inc_st = 1 max_pts_inc_nr = 1 rate_pts = 2.5 next_ratio = 1.5 max_images=500000
! auto_fixed_lambda = 0 increase_rate = 0.1 min_lambda = 100 max_lambda = 1e+006
