! 
# GHZ S MA R 50
! Nport = 1
3.80000000000000e+000 9.73184702870509e-001 1.49536304063161e+001
3.91000000000000e+000 9.70929687392368e-001 6.72439167036885e+000
4.02000000000000e+000 9.66798151492135e-001 -1.92449236516539e+000
4.13000000000000e+000 9.59985093140316e-001 -1.10968890303764e+001
4.24000000000000e+000 9.49400713753449e-001 -2.09100768754014e+001
4.35000000000000e+000 9.33598836715022e-001 -3.14946587798227e+001
4.46000000000000e+000 9.10719996648292e-001 -4.29917536777718e+001
4.57000000000000e+000 8.78502164917087e-001 -5.55469595205647e+001
4.68000000000000e+000 8.34412577065126e-001 -6.92994982518831e+001
4.79000000000000e+000 7.75980722379407e-001 -8.43672516527685e+001
4.90000000000000e+000 7.01332315417122e-001 -1.00831532055197e+002
5.01000000000000e+000 6.09760750297088e-001 -1.18728961970479e+002
5.12000000000000e+000 5.01988222334819e-001 -1.38057043523516e+002
5.23000000000000e+000 3.79822911962128e-001 -1.58787715029907e+002
5.34000000000000e+000 2.45411898999208e-001 1.79152597829723e+002
5.45000000000000e+000 1.00983992940084e-001 1.56248594671027e+002
5.56000000000000e+000 5.00036826919849e-002 -5.22960342975894e+001
5.67000000000000e+000 2.00022969900262e-001 -7.60021276640128e+001
5.78000000000000e+000 3.37570589388899e-001 -1.01169034708583e+002
5.89000000000000e+000 4.51343656322607e-001 -1.25264419487204e+002
6.00000000000000e+000 5.36738686786326e-001 -1.47289747067056e+002

! acs =  6 12 5 8 3 5 4
! insert_points = 3
! eps2d = 3e-005 3e-005 eps3d = 0.0001 0.0001
! max_factor = 2.5 extract_factor = 0.2 far_factor=0.5 eps_thin = 0.0001 eps_far = 0.01
! max_pts = 12 max_pts_inc_st = 1 max_pts_inc_nr = 1 rate_pts = 2.5 next_ratio = 1.5 max_images=500000
! auto_fixed_lambda = 0 increase_rate = 0.1 min_lambda = 100 max_lambda = 1e+006
