! 
# GHZ S MA R 50
! Nport = 1
3.80000000000000e+000 9.68812336936889e-001 1.37377064413215e+001
3.91000000000000e+000 9.66596456446438e-001 6.25916595964878e+000
4.02000000000000e+000 9.62214855551272e-001 -1.62900849192601e+000
4.13000000000000e+000 9.54669880751216e-001 -1.00496678386255e+001
4.24000000000000e+000 9.42549555168684e-001 -1.91452909916572e+001
4.35000000000000e+000 9.23914468598134e-001 -2.90781747177754e+001
4.46000000000000e+000 8.96170234557465e-001 -4.00291299485169e+001
4.57000000000000e+000 8.56080087635563e-001 -5.21819786314449e+001
4.68000000000000e+000 8.00116773831300e-001 -6.56998526958505e+001
4.79000000000000e+000 7.25320166159540e-001 -8.06837082107700e+001
4.90000000000000e+000 6.30734428487655e-001 -9.71184983033722e+001
5.01000000000000e+000 5.18829566420399e-001 -1.14811047832991e+002
5.12000000000000e+000 3.95725412368059e-001 -1.33269608875661e+002
5.23000000000000e+000 2.69635934506723e-001 -1.51183564973527e+002
5.34000000000000e+000 1.49923924885475e-001 -1.63244478143370e+002
5.45000000000000e+000 6.95733268225721e-002 -1.35033738389325e+002
5.56000000000000e+000 1.30316084856445e-001 -9.73781099335988e+001
5.67000000000000e+000 2.37032151659560e-001 -1.11477981258684e+002
5.78000000000000e+000 3.41696782131527e-001 -1.34821955547869e+002
5.89000000000000e+000 4.32817619066388e-001 -1.58910992357120e+002
6.00000000000000e+000 5.05355095181293e-001 1.78972436665766e+002

! acs =  6 12 5 8 3 5 4
! insert_points = 3
! eps2d = 3e-005 3e-005 eps3d = 0.0001 0.0001
! max_factor = 2.5 extract_factor = 0.2 far_factor=0.5 eps_thin = 0.0001 eps_far = 0.01
! max_pts = 12 max_pts_inc_st = 1 max_pts_inc_nr = 1 rate_pts = 2.5 next_ratio = 1.5 max_images=500000
! auto_fixed_lambda = 0 increase_rate = 0.1 min_lambda = 100 max_lambda = 1e+006
