! 
# GHZ S MA R 50
! Nport = 1
3.80000000000000e+000 9.65741126839331e-001 1.36810561952601e+001
3.91000000000000e+000 9.64489392342050e-001 6.90166396364785e+000
4.02000000000000e+000 9.61228155033612e-001 -2.37433657511339e-001
4.13000000000000e+000 9.54975241403024e-001 -7.86021833206161e+000
4.24000000000000e+000 9.44226487043004e-001 -1.61098960801939e+001
4.35000000000000e+000 9.26954900958396e-001 -2.51208724628468e+001
4.46000000000000e+000 9.01604159632365e-001 -3.50922738298547e+001
4.57000000000000e+000 8.64055004745462e-001 -4.62627400670840e+001
4.68000000000000e+000 8.10423676549011e-001 -5.87741100664357e+001
4.79000000000000e+000 7.37770232553401e-001 -7.27174964580906e+001
4.90000000000000e+000 6.45586843394830e-001 -8.80478711566688e+001
5.01000000000000e+000 5.37781396455305e-001 -1.04506777044857e+002
5.12000000000000e+000 4.23169996583050e-001 -1.21515579936095e+002
5.23000000000000e+000 3.13621992636628e-001 -1.37835303944820e+002
5.34000000000000e+000 2.22107638755895e-001 -1.50488579645887e+002
5.45000000000000e+000 1.66265126130812e-001 -1.53799079503180e+002
5.56000000000000e+000 1.71138823601806e-001 -1.50625782023231e+002
5.67000000000000e+000 2.34293328489498e-001 -1.58373887436788e+002
5.78000000000000e+000 3.24613601661797e-001 -1.76473197813220e+002
5.89000000000000e+000 4.15728219920546e-001 1.62738050769302e+002
6.00000000000000e+000 4.92648674944334e-001 1.43368853350733e+002

! acs =  6 12 5 8 3 5 4
! insert_points = 3
! eps2d = 3e-005 3e-005 eps3d = 0.0001 0.0001
! max_factor = 2.5 extract_factor = 0.2 far_factor=0.5 eps_thin = 0.0001 eps_far = 0.01
! max_pts = 12 max_pts_inc_st = 1 max_pts_inc_nr = 1 rate_pts = 2.5 next_ratio = 1.5 max_images=500000
! auto_fixed_lambda = 0 increase_rate = 0.1 min_lambda = 100 max_lambda = 1e+006
