! 
# GHZ S MA R 50
! Nport = 1
4.00000000000000e-001 9.61269181274479e-001 9.80034323055551e+001
5.00000000000000e-001 9.65270044390710e-001 5.88918021566866e+001
6.00000000000000e-001 9.59313403813917e-001 1.74879024348820e+001
7.00000000000000e-001 6.72581361925523e-001 -7.94333046473845e+001
8.00000000000000e-001 5.56293960386494e-001 9.97183341357730e+001
9.00000000000000e-001 4.70161864387028e-001 4.03017011160569e+001
1.00000000000000e+000 5.46813482939990e-001 8.97440853713735e+001
1.10000000000000e+000 8.01633547901726e-001 5.93892377566107e+001
1.20000000000000e+000 8.48306141640659e-001 4.37501662903661e+001
1.30000000000000e+000 8.61390261657218e-001 3.33112048769699e+001
1.40000000000000e+000 8.65559132357701e-001 2.56888641881644e+001
1.50000000000000e+000 8.68327709286744e-001 1.90822684805892e+001
1.60000000000000e+000 8.65659496210918e-001 1.32407540444745e+001
1.70000000000000e+000 8.58193011922162e-001 7.96341739103730e+000
1.80000000000000e+000 8.45299175510466e-001 3.16450233554884e+000
1.90000000000000e+000 8.26721428576539e-001 -1.08923317655834e+000
2.00000000000000e+000 8.05260756317159e-001 -4.58570166716138e+000
2.10000000000000e+000 7.89274554896569e-001 -7.61698822424371e+000
2.20000000000000e+000 7.70799969945854e-001 -1.13388728905459e+001
2.30000000000000e+000 7.19716524423562e-001 -1.46828338443340e+001
2.40000000000000e+000 6.64247355663063e-001 -1.34296382799053e+001

! acs =  6 12 5 8 3 5 4
! insert_points = 3
! eps2d = 3e-005 3e-005 eps3d = 0.0001 0.0001
! max_factor = 2.5 extract_factor = 0.2 far_factor=0.5 eps_thin = 0.0001 eps_far = 0.01
! max_pts = 12 max_pts_inc_st = 1 max_pts_inc_nr = 1 rate_pts = 2.5 next_ratio = 1.5 max_images=500000
! auto_fixed_lambda = 0 increase_rate = 0.1 min_lambda = 100 max_lambda = 1e+006
