! 
# GHZ S MA R 50
! Nport = 1
1.20000000000000e+000 9.43769765687179e-001 6.28675354270133e+001
1.30526315790000e+000 9.48693475904208e-001 4.66034930026540e+001
1.41052631580000e+000 9.52954947523434e-001 3.09836617331956e+001
1.51578947370000e+000 9.53319128426736e-001 1.49945990868388e+001
1.62105263160000e+000 9.41848265806732e-001 -2.68833237544697e+000
1.72631578950000e+000 8.97420135697601e-001 -2.40020219198283e+001
1.83157894740000e+000 7.73714223169047e-001 -5.13597382051368e+001
1.93684210530000e+000 5.11429713832672e-001 -8.62111788640055e+001
2.04210526320000e+000 1.72754452139100e-001 -1.20277697570063e+002
2.14736842110000e+000 8.22689336851146e-002 -2.45021689944653e+001
2.25263157900000e+000 1.72810101754402e-001 -7.86050334413175e+001
2.35789473690000e+000 2.73839740144068e-001 -1.70918938232772e+002
2.46315789480000e+000 4.47804090219428e-001 1.26885651659081e+002
2.56842105270000e+000 5.69239888743483e-001 9.21010717250991e+001
2.67368421060000e+000 6.40638817489411e-001 7.05403050716179e+001
2.77894736850000e+000 6.85414931556113e-001 5.56455812504308e+001
2.88421052640000e+000 7.15942161831379e-001 4.44455697798128e+001
2.98947368430000e+000 7.38086487082073e-001 3.54788208113411e+001
3.09473684220000e+000 7.54657055006843e-001 2.79516362338602e+001
3.20000000010000e+000 7.66650949714015e-001 2.14012190736590e+001

! acs =  6 12 5 8 3 5 4
! insert_points = 3
! eps2d = 3e-005 3e-005 eps3d = 0.0001 0.0001
! max_factor = 2.5 extract_factor = 0.2 far_factor=0.5 eps_thin = 0.0001 eps_far = 0.01
! max_pts = 12 max_pts_inc_st = 1 max_pts_inc_nr = 1 rate_pts = 2.5 next_ratio = 1.5 max_images=500000
! auto_fixed_lambda = 0 increase_rate = 0.1 min_lambda = 100 max_lambda = 1e+006
