! 
# GHZ S MA R 50
! Nport = 1
2.20000000000000e+000 9.23600059960788e-001 8.92297146613981e+001
2.30000000000000e+000 9.16380139632512e-001 8.26040053993130e+001
2.40000000000000e+000 9.07336121304338e-001 7.59579574209010e+001
2.50000000000000e+000 8.95447362352608e-001 6.91618943502651e+001
2.60000000000000e+000 8.79062293618338e-001 6.20462269378265e+001
2.70000000000000e+000 8.55422957826170e-001 5.43799119187531e+001
2.80000000000000e+000 8.19805640605399e-001 4.58402716012604e+001
2.90000000000000e+000 7.64059023724607e-001 3.59805376817036e+001
3.00000000000000e+000 6.74661008357574e-001 2.42374012557909e+001
3.10000000000000e+000 5.32591795071607e-001 1.01519883643134e+001
3.20000000000000e+000 3.23416694514255e-001 -5.52841164216172e+000
3.30000000000000e+000 6.75092027420536e-002 -5.52400898294456e+000
3.40000000000000e+000 1.96149385053441e-001 1.23368039093611e+002
3.50000000000000e+000 3.97322230470811e-001 1.11561772739315e+002
3.60000000000000e+000 5.37825284823849e-001 9.98284355891341e+001
3.70000000000000e+000 6.31504989587919e-001 9.01296529860154e+001
3.80000000000000e+000 6.94153259572378e-001 8.21774692674021e+001
3.90000000000000e+000 7.36990105176847e-001 7.55314804803753e+001
4.00000000000000e+000 7.67056554306058e-001 6.98386301847773e+001
4.10000000000000e+000 7.88644888186513e-001 6.48432741940621e+001
4.20000000000000e+000 8.04375314188871e-001 6.03623323375809e+001

! acs =  6 12 5 8 3 5 4
! insert_points = 3
! eps2d = 3e-005 3e-005 eps3d = 0.0001 0.0001
! max_factor = 2.5 extract_factor = 0.2 far_factor=0.5 eps_thin = 0.0001 eps_far = 0.01
! max_pts = 12 max_pts_inc_st = 1 max_pts_inc_nr = 1 rate_pts = 2.5 next_ratio = 1.5 max_images=500000
! auto_fixed_lambda = 0 increase_rate = 0.1 min_lambda = 100 max_lambda = 1e+006
